Title: acvdb
Date: Fri May  4 14:19:05 1990
Plotname: acvdb
Flags: real
No. Variables: 3
No. Points: 0000071
Command: version CAzM 4.1
Variables:
	0	Frequency	Frequency
	1	vdb_5_0	voltage
	2	vdb_6_0	voltage
Values:

0		1.000000000000000e+01
	-1.622503689077568e+02
	-1.682837485110329e+02
1		1.258925411794167e+01
	-1.622503438514804e+02
	-1.682837234546972e+02
2		1.584893192461114e+01
	-1.622503041402546e+02
	-1.682836837433776e+02
3		1.995262314968880e+01
	-1.622502412029469e+02
	-1.682836208059211e+02
4		2.511886431509581e+01
	-1.622501414559047e+02
	-1.682835210586431e+02
5		3.162277660168380e+01
	-1.622499833721891e+02
	-1.682833629745539e+02
6		3.981071705534973e+01
	-1.622497328381708e+02
	-1.682831124399434e+02
7		5.011872336272724e+01
	-1.622493357981132e+02
	-1.682827153989474e+02
8		6.309573444801935e+01
	-1.622487066063721e+02
	-1.682820862057194e+02
9		7.943282347242818e+01
	-1.622477095913486e+02
	-1.682810891883403e+02
10		1.000000000000000e+02
	-1.622461298977227e+02
	-1.682795094909831e+02
11		1.258925411794168e+02
	-1.622436274284483e+02
	-1.682770070158006e+02
12		1.584893192461114e+02
	-1.622396642332635e+02
	-1.682730438112661e+02
13		1.995262314968881e+02
	-1.622333903911218e+02
	-1.682667699543409e+02
14		2.511886431509582e+02
	-1.622234655492488e+02
	-1.682568450891249e+02
15		3.162277660168381e+02
	-1.622077820474725e+02
	-1.682411615505699e+02
16		3.981071705534975e+02
	-1.621830408082152e+02
	-1.682164202535625e+02
17		5.011872336272726e+02
	-1.621441150364312e+02
	-1.681774943915826e+02
18		6.309573444801937e+02
	-1.620831277285024e+02
	-1.681165069439541e+02
19		7.943282347242821e+02
	-1.619881901521763e+02
	-1.680215691540271e+02
20		1.000000000000001e+03
	-1.618418503800912e+02
	-1.678752290617023e+02
21		1.258925411794168e+03
	-1.616195683136731e+02
	-1.676529465290405e+02
22		1.584893192461115e+03
	-1.612890415888904e+02
	-1.673224191536310e+02
23		1.995262314968882e+03
	-1.608118351761342e+02
	-1.668452118847078e+02
24		2.511886431509583e+03
	-1.601488645709357e+02
	-1.661822402358936e+02
25		3.162277660168383e+03
	-1.592697043260658e+02
	-1.653030788313731e+02
26		3.981071705534977e+03
	-1.581623023333074e+02
	-1.641956756753717e+02
27		5.011872336272730e+03
	-1.568374017544839e+02
	-1.628707740435219e+02
28		6.309573444801941e+03
	-1.553245838214907e+02
	-1.613579552422374e+02
29		7.943282347242826e+03
	-1.536627066932115e+02
	-1.596960774514492e+02
30		1.000000000000001e+04
	-1.518904403938639e+02
	-1.579238106759250e+02
31		1.258925411794169e+04
	-1.500405285928790e+02
	-1.560738985472013e+02
32		1.584893192461116e+04
	-1.481379681826668e+02
	-1.541713379180982e+02
33		1.995262314968883e+04
	-1.462005926458983e+02
	-1.522339622380756e+02
34		2.511886431509585e+04
	-1.442405757652878e+02
	-1.502739452649812e+02
35		3.162277660168385e+04
	-1.422659941400576e+02
	-1.482993635806084e+02
36		3.981071705534980e+04
	-1.402821089457761e+02
	-1.463154783487912e+02
37		5.011872336272732e+04
	-1.382923075672334e+02
	-1.443256769466128e+02
38		6.309573444801945e+04
	-1.362987548245051e+02
	-1.423321241891602e+02
39		7.943282347242831e+04
	-1.343028277195487e+02
	-1.403361970751803e+02
40		1.000000000000002e+05
	-1.323053995310397e+02
	-1.383387688812757e+02
41		1.258925411794170e+05
	-1.303070230391484e+02
	-1.363403923862697e+02
42		1.584893192461117e+05
	-1.283080477345739e+02
	-1.343414170799921e+02
43		1.995262314968884e+05
	-1.263086944155258e+02
	-1.323420637601135e+02
44		2.511886431509586e+05
	-1.243091025120927e+02
	-1.303424718564210e+02
45		3.162277660168386e+05
	-1.223093600480477e+02
	-1.283427293925570e+02
46		3.981071705534981e+05
	-1.203095225864168e+02
	-1.263428919315466e+02
47		5.011872336272734e+05
	-1.183096252004914e+02
	-1.243429945467957e+02
48		6.309573444801947e+05
	-1.163096900352342e+02
	-1.223430593835116e+02
49		7.943282347242835e+05
	-1.143097310835075e+02
	-1.203431004349786e+02
50		1.000000000000003e+06
	-1.123097572048971e+02
	-1.183431265614701e+02
51		1.258925411794171e+06
	-1.103097740374301e+02
	-1.163431434021142e+02
52		1.584893192461118e+06
	-1.083097852142876e+02
	-1.143431545918423e+02
53		1.995262314968885e+06
	-1.063097931479105e+02
	-1.123431625458737e+02
54		2.511886431509587e+06
	-1.043097995506452e+02
	-1.103431689809604e+02
55		3.162277660168388e+06
	-1.023098058042358e+02
	-1.083431752858312e+02
56		3.981071705534984e+06
	-1.003098132578107e+02
	-1.063431828206874e+02
57		5.011872336272738e+06
	-9.830982351844442e+01
	-1.043431932101574e+02
58		6.309573444801952e+06
	-9.630983879642145e+01
	-1.023432086923588e+02
59		7.943282347242840e+06
	-9.430986237824989e+01
	-1.003432325979410e+02
60		1.000000000000003e+07
	-9.230989932581073e+01
	-9.834327005881408e+01
61		1.258925411794171e+07
	-9.030995754322559e+01
	-9.634332909026028e+01
62		1.584893192461119e+07
	-8.831004941831445e+01
	-9.434342225669063e+01
63		1.995262314968886e+07
	-8.631019433438219e+01
	-9.234356922226148e+01
64		2.511886431509589e+07
	-8.431042244912747e+01
	-9.034380059200957e+01
65		3.162277660168390e+07
	-8.231078020192462e+01
	-8.834416351911337e+01
66		3.981071705534986e+07
	-8.031133790530775e+01
	-8.634472945725649e+01
67		5.011872336272740e+07
	-7.831219923301217e+01
	-8.434560390748133e+01
68		6.309573444801955e+07
	-7.631351111286163e+01
	-8.234693672687075e+01
69		7.943282347242844e+07
	-7.431547067685224e+01
	-8.034892974584113e+01
70		1.000000000000004e+08
	-7.231832578609172e+01
	-7.835183836118307e+01