Title: acvp
Date: Fri May  4 14:19:05 1990
Plotname: acvp
Flags: real
No. Variables: 3
No. Points: 0000071
Command: version CAzM 4.1
Variables:
	0	Frequency	Frequency
	1	vp_5_0	voltage
	2	vp_6_0	voltage
Values:

0		1.000000000000000e+01
	1.798200498533181e+02
	1.798200496098021e+02
1		1.258925411794167e+01
	1.797734566231616e+02
	1.797734563165946e+02
2		1.584893192461114e+01
	1.797147996553034e+02
	1.797147992693616e+02
3		1.995262314968880e+01
	1.796409557730241e+02
	1.796409552871583e+02
4		2.511886431509581e+01
	1.795479935592374e+02
	1.795479929475808e+02
5		3.162277660168380e+01
	1.794309645098589e+02
	1.794309637398535e+02
6		3.981071705534973e+01
	1.792836405366193e+02
	1.792836395672887e+02
7		5.011872336272724e+01
	1.790981843505898e+02
	1.790981831303723e+02
8		6.309573444801935e+01
	1.788647361902617e+02
	1.788647346542932e+02
9		7.943282347242818e+01
	1.785708969126120e+02
	1.785708949793299e+02
10		1.000000000000000e+02
	1.782010839549334e+02
	1.782010815218485e+02
11		1.258925411794168e+02
	1.777357338936810e+02
	1.777357308321496e+02
12		1.584893192461114e+02
	1.771503250566448e+02
	1.771503212054751e+02
13		1.995262314968881e+02
	1.764141996379911e+02
	1.764141947957667e+02
14		2.511886431509582e+02
	1.754891845868512e+02
	1.754891785029997e+02
15		3.162277660168381e+02
	1.743280588701126e+02
	1.743280512350928e+02
16		3.981071705534975e+02
	1.728730187665439e+02
	1.728730092022547e+02
17		5.011872336272726e+02
	1.710544997259385e+02
	1.710544877788658e+02
18		6.309573444801937e+02
	1.687910948484921e+02
	1.687910799906330e+02
19		7.943282347242821e+02
	1.659919471154869e+02
	1.659919287620643e+02
20		1.000000000000001e+03
	1.625638877568873e+02
	1.625638653147571e+02
21		1.258925411794168e+03
	1.584264103601708e+02
	1.584263833232555e+02
22		1.584893192461115e+03
	1.535371302600703e+02
	1.535370983589559e+02
23		1.995262314968882e+03
	1.479263217479133e+02
	1.479262851259326e+02
24		2.511886431509583e+03
	1.417294951172252e+02
	1.417294544438891e+02
25		3.162277660168383e+03
	1.351958197826530e+02
	1.351957761753935e+02
26		3.981071705534977e+03
	1.286519815172535e+02
	1.286519362132106e+02
27		5.011872336272730e+03
	1.224271466138029e+02
	1.224271005134263e+02
28		6.309573444801941e+03
	1.167765812418913e+02
	1.167765345552869e+02
29		7.943282347242826e+03
	1.118426789781300e+02
	1.118426311060032e+02
30		1.000000000000001e+04
	1.076611678290394e+02
	1.076611174272353e+02
31		1.258925411794169e+04
	1.041929540071230e+02
	1.041928991038622e+02
32		1.584893192461116e+04
	1.013589722584367e+02
	1.013589103282202e+02
33		1.995262314968883e+04
	9.906629078727330e+01
	9.906621874652943e+01
34		2.511886431509585e+04
	9.722365095629436e+01
	9.722356508120338e+01
35		3.162277660168385e+04
	9.574897931676412e+01
	9.574887509242842e+01
36		3.981071705534980e+04
	9.457198831120498e+01
	9.457186021729598e+01
37		5.011872336272732e+04
	9.363419512955596e+01
	9.363403636023027e+01
38		6.309573444801945e+04
	9.288778272166225e+01
	9.288758483040057e+01
39		7.943282347242831e+04
	9.229407300207909e+01
	9.229382545562562e+01
40		1.000000000000002e+05
	9.182198770727082e+01
	9.182167732653200e+01
41		1.258925411794170e+05
	9.144665735677333e+01
	9.144626761574186e+01
42		1.584893192461117e+05
	9.114823015351099e+01
	9.114774029939085e+01
43		1.995262314968884e+05
	9.091088192587452e+01
	9.091026587391799e+01
44		2.511886431509586e+05
	9.072200718170912e+01
	9.072123212613009e+01
45		3.162277660168386e+05
	9.057156477033999e+01
	9.057058943738147e+01
46		3.981071705534981e+05
	9.045155165977907e+01
	9.045032410986398e+01
47		5.011872336272734e+05
	9.035558100983367e+01
	9.035403587170896e+01
48		6.309573444801947e+05
	9.027854418579624e+01
	9.027659917535811e+01
49		7.943282347242835e+05
	9.021633977517662e+01
	9.021389131359342e+01
50		1.000000000000003e+06
	9.016565570898223e+01
	9.016257340677126e+01
51		1.258925411794171e+06
	9.012379315161708e+01
	9.011991286493981e+01
52		1.584893192461118e+06
	9.008852291501816e+01
	9.008363800441869e+01
53		1.995262314968885e+06
	9.005796681865402e+01
	9.005181714473395e+01
54		2.511886431509587e+06
	9.003049771334439e+01
	9.002275578334367e+01
55		3.162277660168388e+06
	9.000465286654592e+01
	8.999490639406079e+01
56		3.981071705534984e+06
	8.997905611486493e+01
	8.996678606389565e+01
57		5.011872336272738e+06
	8.995234466208026e+01
	8.993689760607791e+01
58		6.309573444801952e+06
	8.992309666578574e+01
	8.990364998952481e+01
59		7.943282347242840e+06
	8.988975583544536e+01
	8.986527392622190e+01
60		1.000000000000003e+07
	8.985054918150939e+01
	8.981972827596307e+01
61		1.258925411794171e+07
	8.980339384046405e+01
	8.976459258854540e+01
62		1.584893192461119e+07
	8.974578861037946e+01
	8.969694065621265e+01
63		1.995262314968886e+07
	8.967468557195299e+01
	8.961318949175291e+01
64		2.511886431509589e+07
	8.958633712653527e+01
	8.950891785505854e+01
65		3.162277660168390e+07
	8.947611420910498e+01
	8.937864856432242e+01
66		3.981071705534986e+07
	8.933829244459788e+01
	8.921558944579576e+01
67		5.011872336272740e+07
	8.916580377665844e+01
	8.901132804497713e+01
68		6.309573444801955e+07
	8.894994787177244e+01
	8.875547138083481e+01
69		7.943282347242844e+07
	8.868004121461509e+01
	8.843520487461491e+01
70		1.000000000000004e+08
	8.834293988257886e+01
	8.803470173431924e+01