Title: 
Date: Fri May  4 10:56:20 1990
Plotname: 
Flags: real
No. Variables: 3
No. Points: 81
Command: version CAzM 4.1
Variables:
	0	Time	Time
	1	inp 	voltage
	2	out 	voltage
Values:

	2.503000000000000e+00
	4.513923065440102e+00

	2.502950000000000e+00
	4.506958573505043e+00

	2.502900000000000e+00
	4.499779780442673e+00

	2.502850000000000e+00
	4.492380936595584e+00

	2.502800000000001e+00
	4.484751739333896e+00

	2.502750000000001e+00
	4.474105976122771e+00

	2.502700000000001e+00
	4.462426633975693e+00

	2.502650000000001e+00
	4.448978005627015e+00

	2.502600000000001e+00
	4.434825816952619e+00

	2.502550000000001e+00
	4.419913751970775e+00

	2.502500000000001e+00
	4.404178713928219e+00

	2.502450000000001e+00
	4.387550452172255e+00

	2.502400000000002e+00
	4.365132095038540e+00

	2.502350000000002e+00
	4.328308596504653e+00

	2.502300000000002e+00
	4.288566429295336e+00

	2.502250000000002e+00
	4.245544615153707e+00

	2.502200000000002e+00
	4.198819500668033e+00

	2.502150000000002e+00
	4.147891716972508e+00

	2.502100000000002e+00
	4.092167169548512e+00

	2.502050000000002e+00
	4.030934918397185e+00

	2.502000000000002e+00
	3.963336139473879e+00

	2.501950000000003e+00
	3.881870612060749e+00

	2.501900000000003e+00
	3.788035746929353e+00

	2.501850000000003e+00
	3.754546640682442e+00

	2.501800000000003e+00
	3.626323445574177e+00

	2.501750000000003e+00
	3.479298914464452e+00

	2.501700000000003e+00
	3.327282496864040e+00

	2.501650000000003e+00
	3.170015693661284e+00

	2.501600000000003e+00
	2.884625114290542e+00

	2.501550000000003e+00
	2.545947695124353e+00

	2.501500000000004e+00
	2.219650905817020e+00

	2.501450000000004e+00
	1.890980644200048e+00

	2.501400000000004e+00
	1.595911842899897e+00

	2.501350000000004e+00
	1.298679855719920e+00

	2.501300000000004e+00
	1.153082982253193e+00

	2.501250000000004e+00
	1.036850189760079e+00

	2.501200000000004e+00
	9.200506216278995e-01

	2.501150000000004e+00
	8.026802267952814e-01

	2.501100000000005e+00
	6.847349227088515e-01

	2.501050000000005e+00
	6.175874237015269e-01

	2.501000000000005e+00
	6.026262710340208e-01

	2.500950000000005e+00
	5.876674139776882e-01

	2.500900000000005e+00
	5.727108653994355e-01

	2.500850000000005e+00
	5.577566388737372e-01

	2.500800000000005e+00
	5.428047479466809e-01

	2.500750000000005e+00
	5.278552061359365e-01

	2.500700000000005e+00
	5.129080292729910e-01

	2.500650000000006e+00
	4.979632261053087e-01

	2.500600000000006e+00
	4.830208124363596e-01

	2.500550000000006e+00
	4.680808016697766e-01

	2.500500000000006e+00
	4.531432071805926e-01

	2.500450000000006e+00
	4.382080423152095e-01

	2.500400000000006e+00
	4.232753203913806e-01

	2.500350000000006e+00
	4.083450546981593e-01

	2.500300000000006e+00
	3.934172584958738e-01

	2.500250000000007e+00
	3.784919450161076e-01

	2.500200000000007e+00
	3.635691274616487e-01

	2.500150000000007e+00
	3.486488190064697e-01

	2.500100000000007e+00
	3.337310327957071e-01

	2.500050000000007e+00
	3.188157819456091e-01

	2.500000000000007e+00
	3.039030795435298e-01

	2.499950000000007e+00
	2.889929386478800e-01

	2.499900000000007e+00
	2.740853722881215e-01

	2.499850000000007e+00
	2.588737733500875e-01

	2.499800000000008e+00
	2.436308212872234e-01

	2.499750000000008e+00
	2.283913441336589e-01

	2.499700000000008e+00
	2.131553540469020e-01

	2.499650000000008e+00
	1.979228653490747e-01

	2.499600000000008e+00
	1.941922051487724e-01

	2.499550000000008e+00
	1.928196996651958e-01

	2.499500000000008e+00
	1.914494573015531e-01

	2.499450000000008e+00
	1.900814731847735e-01

	2.499400000000009e+00
	1.887157421153005e-01

	2.499350000000009e+00
	1.873522589080824e-01

	2.499300000000009e+00
	1.859910183924970e-01

	2.499250000000009e+00
	1.846320154123068e-01

	2.499200000000009e+00
	1.832752448256164e-01

	2.499150000000009e+00
	1.819207015048287e-01

	2.499100000000009e+00
	1.805683803366020e-01

	2.499050000000009e+00
	1.792182762218077e-01

	2.499000000000009e+00
	1.778703840754870e-01
