Title: 
Date: Fri May  4 14:35:39 1990
Plotname: 
Flags: real
No. Variables: 5
No. Points: 0000035
Command: version CAzM 4.1
Variables:
	0	time	time
	1	in 	voltage
	2	int 	voltage
	3	out 	voltage
	4	rout 	voltage
Values:
0		0.000000000000000e+00
	2.000000000000000e-01
	4.499998213566355e+00
	8.357648757293118e-10
	4.500001847999094e+00
1		5.857864376269049e-10
	2.000000000000000e-01
	4.499998213566355e+00
	8.357648757293118e-10
	4.500001847999094e+00
2		1.000000000000000e-09
	2.000000000000000e-01
	4.499998213566355e+00
	8.357648757293118e-10
	4.500001847999094e+00
3		1.585786437626905e-09
	2.000000000000000e-01
	4.499998213566355e+00
	8.357648757293118e-10
	4.500001847999094e+00
4		2.000000000000000e-09
	2.000000000000000e-01
	4.499998213566355e+00
	8.357648757293118e-10
	4.500001847999094e+00
5		3.171572875253810e-09
	2.718881681795691e+00
	3.981335772512423e+00
	-7.814290306239691e-03
	4.499767152284617e+00
6		4.000000000000000e-09
	4.500000000000000e+00
	3.061186584304380e+00
	6.365816068760133e-02
	4.502082156790244e+00
7		4.781048583502540e-09
	4.499999999999999e+00
	2.147946150379787e+00
	3.649757119238816e-01
	4.511804829255987e+00
8		5.333333333333334e-09
	4.499999999999999e+00
	1.710849312441471e+00
	9.037291585850082e-01
	4.484441119866443e+00
9		6.114381916835874e-09
	4.499999999999999e+00
	1.311640099146866e+00
	2.570093779527830e+00
	2.769565963707692e+00
10		6.666666666666668e-09
	4.499999999999999e+00
	1.125790646737636e+00
	3.594409492446029e+00
	5.800768073963165e-01
11		7.451500997493645e-09
	4.499999999999999e+00
	9.512848963922166e-01
	4.231024555444345e+00
	-1.236225067444822e-01
12		8.006462674929409e-09
	4.499999999999999e+00
	8.685199373101300e-01
	4.351309497099354e+00
	-4.519322018114142e-02
13		8.641055935186216e-09
	4.499999999999999e+00
	8.057785268785156e-01
	4.389482695751395e+00
	2.665360301662136e-02
14		9.089781132809084e-09
	4.499999999999999e+00
	7.745097828312426e-01
	4.417361563692637e+00
	9.111613833810666e-03
15		1.004006735374510e-08
	4.499999999999999e+00
	7.318805083050269e-01
	4.446764199301229e+00
	-5.508198219782326e-03
16		1.071202118463709e-08
	4.499999999999999e+00
	7.134466647828097e-01
	4.455261489508097e+00
	-1.284302445181339e-03
17		1.146650170662745e-08
	4.500000000000000e+00
	7.010425538704320e-01
	4.460474710873275e+00
	8.879675459472310e-04
18		1.200000000000000e-08
	4.500000000000000e+00
	6.950991295820497e-01
	4.463500134552954e+00
	2.944863375748241e-04
19		1.317157287525381e-08
	1.981118318204308e+00
	7.369361054282050e-01
	4.457094937981881e+00
	-2.259091896993474e-04
20		1.400000000000000e-08
	2.000000000000000e-01
	9.201562573330770e-01
	4.411306929429024e+00
	-4.016431290201792e-04
21		1.545242443558980e-08
	2.000000000000000e-01
	1.473970270993362e+00
	3.858278984936857e+00
	-3.708028875629515e-03
22		1.647944360315639e-08
	2.000000000000000e-01
	1.895210277285322e+00
	2.395664257108974e+00
	4.664671485601089e-02
23		1.729621679704558e-08
	2.000000000000000e-01
	2.226347450024660e+00
	9.288820683362713e-01
	7.216261352729302e-01
24		1.787376266113602e-08
	2.000000000000000e-01
	2.455728974797777e+00
	4.395755653410671e-01
	2.506268663001070e+00
25		1.869053585502521e-08
	2.000000000000000e-01
	2.778158813244764e+00
	2.012362354452846e-01
	4.370493909182920e+00
26		1.926808171911565e-08
	2.000000000000000e-01
	2.996000688554657e+00
	1.255057493460129e-01
	4.605699954016682e+00
27		2.002069601442568e-08
	2.000000000000000e-01
	3.262343442863800e+00
	6.400701175693996e-02
	4.485986067988736e+00
28		2.055287468625734e-08
	2.000000000000000e-01
	3.429940795448217e+00
	4.157953275786717e-02
	4.480529617423570e+00
29		2.178418378571907e-08
	2.000000000000000e-01
	3.764449001804532e+00
	1.281015805571085e-02
	4.505570487944019e+00
30		2.265485079968517e-08
	2.000000000000000e-01
	3.952393249058859e+00
	2.756519446136929e-03
	4.503459513651233e+00
31		2.511746899860863e-08
	2.000000000000000e-01
	4.283114264110769e+00
	4.098481426825926e-04
	4.497789063218145e+00
32		2.685880302654081e-08
	2.000000000000000e-01
	4.395840485368598e+00
	3.003877951525165e-04
	4.499371913913561e+00
33		2.869887361150789e-08
	2.000000000000000e-01
	4.445036224975589e+00
	1.918552433685912e-04
	4.500330742641617e+00
34		3.000000000000000e-08
	2.000000000000000e-01
	4.465337811379228e+00
	1.031503581086423e-04
	4.500122147008074e+00
