#H
SOURCE='CAZM'
VERSION='5.0_work'
TITLE='aoi'
SUBTITLE='?'
TIME='11:36:55'
DATE='Wed Feb  3 1993'
TEMPERATURE='25'
ANALYSIS='Transient Analysis'
NODES='2'
SWEEPVAR='TIME'
SWEEPMODE='VAR_STEP'
XBEGIN='0'
XEND='3e-07'
FORMAT='0 VOLTS;EFLOAT:NODE;NODE'
#N
'v(a1)' 'v(q)' 
#U
'Volts' 'Volts' 
#C 0 2
5:1 2.01841e-09:2 
#C 1e-10 2
5:1 2.01841e-09:2 
#C 1.70711e-10 2
5:1 2.01841e-09:2 
#C 2.70711e-10 2
5:1 2.01841e-09:2 
#C 3.41421e-10 2
5:1 2.01841e-09:2 
#C 4.34315e-10 2
5:1 2.01841e-09:2 
#C 5e-10 2
5:1 2.01841e-09:2 
#C 6e-10 2
5:1 2.01841e-09:2 
#C 6.70711e-10 2
5:1 2.01841e-09:2 
#C 7.70711e-10 2
5:1 2.01841e-09:2 
#C 8.41421e-10 2
5:1 2.01841e-09:2 
#C 9.41421e-10 2
5:1 2.01841e-09:2 
#C 1.01213e-09 2
5:1 2.01841e-09:2 
#C 1.11213e-09 2
5:1 2.01841e-09:2 
#C 1.18284e-09 2
5:1 2.01841e-09:2 
#C 1.28284e-09 2
5:1 2.01841e-09:2 
#C 1.35355e-09 2
5:1 2.01841e-09:2 
#C 1.45355e-09 2
5:1 2.01841e-09:2 
#C 1.52426e-09 2
5:1 2.01841e-09:2 
#C 1.62426e-09 2
5:1 2.01841e-09:2 
#C 1.69497e-09 2
5:1 2.01841e-09:2 
#C 1.79497e-09 2
5:1 2.01841e-09:2 
#C 1.86569e-09 2
5:1 2.01841e-09:2 
#C 1.96569e-09 2
5:1 2.01841e-09:2 
#C 2.0364e-09 2
5:1 2.01841e-09:2 
#C 2.1364e-09 2
5:1 2.01841e-09:2 
#C 2.20711e-09 2
5:1 2.01841e-09:2 
#C 2.30711e-09 2
5:1 2.01841e-09:2 
#C 2.37782e-09 2
5:1 2.01841e-09:2 
#C 2.47782e-09 2
5:1 2.01841e-09:2 
#C 2.54853e-09 2
5:1 2.01841e-09:2 
#C 2.64853e-09 2
5:1 2.01841e-09:2 
#C 2.71924e-09 2
5:1 2.01841e-09:2 
#C 2.81924e-09 2
5:1 2.01841e-09:2 
#C 2.88995e-09 2
5:1 2.01841e-09:2 
#C 2.98995e-09 2
5:1 2.01841e-09:2 
#C 3.06066e-09 2
5:1 2.01841e-09:2 
#C 3.16066e-09 2
5:1 2.01841e-09:2 
#C 3.23137e-09 2
5:1 2.01841e-09:2 
#C 3.33137e-09 2
5:1 2.01841e-09:2 
#C 3.40208e-09 2
5:1 2.01841e-09:2 
#C 3.50208e-09 2
5:1 2.01841e-09:2 
#C 3.57279e-09 2
5:1 2.01841e-09:2 
#C 3.67279e-09 2
5:1 2.01841e-09:2 
#C 3.7435e-09 2
5:1 2.01841e-09:2 
#C 3.8435e-09 2
5:1 2.01841e-09:2 
#C 3.91421e-09 2
5:1 2.01841e-09:2 
#C 4.01421e-09 2
5:1 2.01841e-09:2 
#C 4.08492e-09 2
5:1 2.01841e-09:2 
#C 4.18492e-09 2
5:1 2.01841e-09:2 
#C 4.25563e-09 2
5:1 2.01841e-09:2 
#C 4.35563e-09 2
5:1 2.01841e-09:2 
#C 4.42635e-09 2
5:1 2.01841e-09:2 
#C 4.52635e-09 2
5:1 2.01841e-09:2 
#C 4.59706e-09 2
5:1 2.01841e-09:2 
#C 4.69706e-09 2
5:1 2.01841e-09:2 
#C 4.76777e-09 2
5:1 2.01841e-09:2 
#C 4.86777e-09 2
5:1 2.01841e-09:2 
#C 4.93848e-09 2
5:1 2.01841e-09:2 
#C 5.03848e-09 2
5:1 2.01841e-09:2 
#C 5.10919e-09 2
5:1 2.01841e-09:2 
#C 5.20919e-09 2
5:1 2.01841e-09:2 
#C 5.2799e-09 2
5:1 2.01841e-09:2 
#C 5.3799e-09 2
5:1 2.01841e-09:2 
#C 5.45061e-09 2
5:1 2.01841e-09:2 
#C 5.55061e-09 2
5:1 2.01841e-09:2 
#C 5.62132e-09 2
5:1 2.01841e-09:2 
#C 5.72132e-09 2
5:1 2.01841e-09:2 
#C 5.79203e-09 2
5:1 2.01841e-09:2 
#C 5.89203e-09 2
5:1 2.01841e-09:2 
#C 5.96274e-09 2
5:1 2.01841e-09:2 
#C 6.06274e-09 2
5:1 2.01841e-09:2 
#C 6.13345e-09 2
5:1 2.01841e-09:2 
#C 6.23345e-09 2
5:1 2.01841e-09:2 
#C 6.30416e-09 2
5:1 2.01841e-09:2 
#C 6.40416e-09 2
5:1 2.01841e-09:2 
#C 6.47487e-09 2
5:1 2.01841e-09:2 
#C 6.57487e-09 2
5:1 2.01841e-09:2 
#C 6.64558e-09 2
5:1 2.01841e-09:2 
#C 6.74558e-09 2
5:1 2.01841e-09:2 
#C 6.8163e-09 2
5:1 2.01841e-09:2 
#C 6.9163e-09 2
5:1 2.01841e-09:2 
#C 6.98701e-09 2
5:1 2.01841e-09:2 
#C 7.08701e-09 2
5:1 2.01841e-09:2 
#C 7.15772e-09 2
5:1 2.01841e-09:2 
#C 7.25772e-09 2
5:1 2.01841e-09:2 
#C 7.32843e-09 2
5:1 2.01841e-09:2 
#C 7.42843e-09 2
5:1 2.01841e-09:2 
#C 7.49914e-09 2
5:1 2.01841e-09:2 
#C 7.59914e-09 2
5:1 2.01841e-09:2 
#C 7.66985e-09 2
5:1 2.01841e-09:2 
#C 7.76985e-09 2
5:1 2.01841e-09:2 
#C 7.84056e-09 2
5:1 2.01841e-09:2 
#C 7.94056e-09 2
5:1 2.01841e-09:2 
#C 8.01127e-09 2
5:1 2.01841e-09:2 
#C 8.11127e-09 2
5:1 2.01841e-09:2 
#C 8.18198e-09 2
5:1 2.01841e-09:2 
#C 8.28198e-09 2
5:1 2.01841e-09:2 
#C 8.35269e-09 2
5:1 2.01841e-09:2 
#C 8.45269e-09 2
5:1 2.01841e-09:2 
#C 8.5234e-09 2
5:1 2.01841e-09:2 
#C 8.6234e-09 2
5:1 2.01841e-09:2 
#C 8.69411e-09 2
5:1 2.01841e-09:2 
#C 8.79411e-09 2
5:1 2.01841e-09:2 
#C 8.86482e-09 2
5:1 2.01841e-09:2 
#C 8.96482e-09 2
5:1 2.01841e-09:2 
#C 9.03553e-09 2
5:1 2.01841e-09:2 
#C 9.13553e-09 2
5:1 2.01841e-09:2 
#C 9.20624e-09 2
5:1 2.01841e-09:2 
#C 9.30624e-09 2
5:1 2.01841e-09:2 
#C 9.37696e-09 2
5:1 2.01841e-09:2 
#C 9.47696e-09 2
5:1 2.01841e-09:2 
#C 9.54767e-09 2
5:1 2.01841e-09:2 
#C 9.64767e-09 2
5:1 2.01841e-09:2 
#C 9.71838e-09 2
5:1 2.01841e-09:2 
#C 9.81838e-09 2
5:1 2.01841e-09:2 
#C 9.88909e-09 2
5:1 2.01841e-09:2 
#C 9.98909e-09 2
5:1 2.01841e-09:2 
#C 1.00598e-08 2
5:1 2.01841e-09:2 
#C 1.01598e-08 2
5:1 2.01841e-09:2 
#C 1.02305e-08 2
5:1 2.01841e-09:2 
#C 1.03305e-08 2
5:1 2.01841e-09:2 
#C 1.04012e-08 2
5:1 2.01841e-09:2 
#C 1.05012e-08 2
5:1 2.01841e-09:2 
#C 1.05719e-08 2
5:1 2.01841e-09:2 
#C 1.06719e-08 2
5:1 2.01841e-09:2 
#C 1.07426e-08 2
5:1 2.01841e-09:2 
#C 1.08426e-08 2
5:1 2.01841e-09:2 
#C 1.09134e-08 2
5:1 2.01841e-09:2 
#C 1.10134e-08 2
5:1 2.01841e-09:2 
#C 1.10841e-08 2
5:1 2.01841e-09:2 
#C 1.11841e-08 2
5:1 2.01841e-09:2 
#C 1.12548e-08 2
5:1 2.01841e-09:2 
#C 1.13548e-08 2
5:1 2.01841e-09:2 
#C 1.14255e-08 2
5:1 2.01841e-09:2 
#C 1.15255e-08 2
5:1 2.01841e-09:2 
#C 1.15962e-08 2
5:1 2.01841e-09:2 
#C 1.16962e-08 2
5:1 2.01841e-09:2 
#C 1.17669e-08 2
5:1 2.01841e-09:2 
#C 1.18669e-08 2
5:1 2.01841e-09:2 
#C 1.19376e-08 2
5:1 2.01841e-09:2 
#C 1.20376e-08 2
5:1 2.01841e-09:2 
#C 1.21083e-08 2
5:1 2.01841e-09:2 
#C 1.22083e-08 2
5:1 2.01841e-09:2 
#C 1.2279e-08 2
5:1 2.01841e-09:2 
#C 1.2379e-08 2
5:1 2.01841e-09:2 
#C 1.24497e-08 2
5:1 2.01841e-09:2 
#C 1.25497e-08 2
5:1 2.01841e-09:2 
#C 1.26205e-08 2
5:1 2.01841e-09:2 
#C 1.27205e-08 2
5:1 2.01841e-09:2 
#C 1.27912e-08 2
5:1 2.01841e-09:2 
#C 1.28912e-08 2
5:1 2.01841e-09:2 
#C 1.29619e-08 2
5:1 2.01841e-09:2 
#C 1.30619e-08 2
5:1 2.01841e-09:2 
#C 1.31326e-08 2
5:1 2.01841e-09:2 
#C 1.32326e-08 2
5:1 2.01841e-09:2 
#C 1.33033e-08 2
5:1 2.01841e-09:2 
#C 1.34033e-08 2
5:1 2.01841e-09:2 
#C 1.3474e-08 2
5:1 2.01841e-09:2 
#C 1.3574e-08 2
5:1 2.01841e-09:2 
#C 1.36447e-08 2
5:1 2.01841e-09:2 
#C 1.37447e-08 2
5:1 2.01841e-09:2 
#C 1.38154e-08 2
5:1 2.01841e-09:2 
#C 1.39154e-08 2
5:1 2.01841e-09:2 
#C 1.39861e-08 2
5:1 2.01841e-09:2 
#C 1.40861e-08 2
5:1 2.01841e-09:2 
#C 1.41569e-08 2
5:1 2.01841e-09:2 
#C 1.42569e-08 2
5:1 2.01841e-09:2 
#C 1.43276e-08 2
5:1 2.01841e-09:2 
#C 1.44276e-08 2
5:1 2.01841e-09:2 
#C 1.44983e-08 2
5:1 2.01841e-09:2 
#C 1.45983e-08 2
5:1 2.01841e-09:2 
#C 1.4669e-08 2
5:1 2.01841e-09:2 
#C 1.4769e-08 2
5:1 2.01841e-09:2 
#C 1.48397e-08 2
5:1 2.01841e-09:2 
#C 1.49397e-08 2
5:1 2.01841e-09:2 
#C 1.50104e-08 2
5:1 2.01841e-09:2 
#C 1.51104e-08 2
5:1 2.01841e-09:2 
#C 1.51811e-08 2
5:1 2.01841e-09:2 
#C 1.52811e-08 2
5:1 2.01841e-09:2 
#C 1.53518e-08 2
5:1 2.01841e-09:2 
#C 1.54518e-08 2
5:1 2.01841e-09:2 
#C 1.55225e-08 2
5:1 2.01841e-09:2 
#C 1.56225e-08 2
5:1 2.01841e-09:2 
#C 1.56933e-08 2
5:1 2.01841e-09:2 
#C 1.57933e-08 2
5:1 2.01841e-09:2 
#C 1.5864e-08 2
5:1 2.01841e-09:2 
#C 1.5964e-08 2
5:1 2.01841e-09:2 
#C 1.60347e-08 2
5:1 2.01841e-09:2 
#C 1.61347e-08 2
5:1 2.01841e-09:2 
#C 1.62054e-08 2
5:1 2.01841e-09:2 
#C 1.63054e-08 2
5:1 2.01841e-09:2 
#C 1.63761e-08 2
5:1 2.01841e-09:2 
#C 1.64761e-08 2
5:1 2.01841e-09:2 
#C 1.65468e-08 2
5:1 2.01841e-09:2 
#C 1.66468e-08 2
5:1 2.01841e-09:2 
#C 1.67175e-08 2
5:1 2.01841e-09:2 
#C 1.68175e-08 2
5:1 2.01841e-09:2 
#C 1.68882e-08 2
5:1 2.01841e-09:2 
#C 1.69882e-08 2
5:1 2.01841e-09:2 
#C 1.70589e-08 2
5:1 2.01841e-09:2 
#C 1.71589e-08 2
5:1 2.01841e-09:2 
#C 1.72296e-08 2
5:1 2.01841e-09:2 
#C 1.73296e-08 2
5:1 2.01841e-09:2 
#C 1.74004e-08 2
5:1 2.01841e-09:2 
#C 1.75004e-08 2
5:1 2.01841e-09:2 
#C 1.75711e-08 2
5:1 2.01841e-09:2 
#C 1.76711e-08 2
5:1 2.01841e-09:2 
#C 1.77418e-08 2
5:1 2.01841e-09:2 
#C 1.78418e-08 2
5:1 2.01841e-09:2 
#C 1.79125e-08 2
5:1 2.01841e-09:2 
#C 1.80125e-08 2
5:1 2.01841e-09:2 
#C 1.80832e-08 2
5:1 2.01841e-09:2 
#C 1.81832e-08 2
5:1 2.01841e-09:2 
#C 1.82539e-08 2
5:1 2.01841e-09:2 
#C 1.83539e-08 2
5:1 2.01841e-09:2 
#C 1.84246e-08 2
5:1 2.01841e-09:2 
#C 1.85246e-08 2
5:1 2.01841e-09:2 
#C 1.85953e-08 2
5:1 2.01841e-09:2 
#C 1.86953e-08 2
5:1 2.01841e-09:2 
#C 1.8766e-08 2
5:1 2.01841e-09:2 
#C 1.8866e-08 2
5:1 2.01841e-09:2 
#C 1.89368e-08 2
5:1 2.01841e-09:2 
#C 1.90368e-08 2
5:1 2.01841e-09:2 
#C 1.91075e-08 2
5:1 2.01841e-09:2 
#C 1.92075e-08 2
5:1 2.01841e-09:2 
#C 1.92782e-08 2
5:1 2.01841e-09:2 
#C 1.93782e-08 2
5:1 2.01841e-09:2 
#C 1.94489e-08 2
5:1 2.01841e-09:2 
#C 1.95489e-08 2
5:1 2.01841e-09:2 
#C 1.96196e-08 2
5:1 2.01841e-09:2 
#C 1.97196e-08 2
5:1 2.01841e-09:2 
#C 1.97903e-08 2
5:1 2.01841e-09:2 
#C 1.98903e-08 2
5:1 2.01841e-09:2 
#C 1.9961e-08 2
5:1 2.01841e-09:2 
#C 2.0061e-08 2
5:1 2.01841e-09:2 
#C 2.01317e-08 2
5:1 2.01841e-09:2 
#C 2.02317e-08 2
5:1 2.01841e-09:2 
#C 2.03024e-08 2
5:1 2.01841e-09:2 
#C 2.04024e-08 2
5:1 2.01841e-09:2 
#C 2.04731e-08 2
5:1 2.01841e-09:2 
#C 2.05731e-08 2
5:1 2.01841e-09:2 
#C 2.06439e-08 2
5:1 2.01841e-09:2 
#C 2.07439e-08 2
5:1 2.01841e-09:2 
#C 2.08146e-08 2
5:1 2.01841e-09:2 
#C 2.09146e-08 2
5:1 2.01841e-09:2 
#C 2.09853e-08 2
5:1 2.01841e-09:2 
#C 2.10853e-08 2
5:1 2.01841e-09:2 
#C 2.1156e-08 2
5:1 2.01841e-09:2 
#C 2.1256e-08 2
5:1 2.01841e-09:2 
#C 2.13267e-08 2
5:1 2.01841e-09:2 
#C 2.14267e-08 2
5:1 2.01841e-09:2 
#C 2.14974e-08 2
5:1 2.01841e-09:2 
#C 2.15974e-08 2
5:1 2.01841e-09:2 
#C 2.16681e-08 2
5:1 2.01841e-09:2 
#C 2.17681e-08 2
5:1 2.01841e-09:2 
#C 2.18388e-08 2
5:1 2.01841e-09:2 
#C 2.19388e-08 2
5:1 2.01841e-09:2 
#C 2.20095e-08 2
5:1 2.01841e-09:2 
#C 2.21095e-08 2
5:1 2.01841e-09:2 
#C 2.21803e-08 2
5:1 2.01841e-09:2 
#C 2.22803e-08 2
5:1 2.01841e-09:2 
#C 2.2351e-08 2
5:1 2.01841e-09:2 
#C 2.2451e-08 2
5:1 2.01841e-09:2 
#C 2.25217e-08 2
5:1 2.01841e-09:2 
#C 2.26217e-08 2
5:1 2.01841e-09:2 
#C 2.26924e-08 2
5:1 2.01841e-09:2 
#C 2.27924e-08 2
5:1 2.01841e-09:2 
#C 2.28631e-08 2
5:1 2.01841e-09:2 
#C 2.29631e-08 2
5:1 2.01841e-09:2 
#C 2.30338e-08 2
5:1 2.01841e-09:2 
#C 2.31338e-08 2
5:1 2.01841e-09:2 
#C 2.32045e-08 2
5:1 2.01841e-09:2 
#C 2.33045e-08 2
5:1 2.01841e-09:2 
#C 2.33752e-08 2
5:1 2.01841e-09:2 
#C 2.34752e-08 2
5:1 2.01841e-09:2 
#C 2.35459e-08 2
5:1 2.01841e-09:2 
#C 2.36459e-08 2
5:1 2.01841e-09:2 
#C 2.37167e-08 2
5:1 2.01841e-09:2 
#C 2.38167e-08 2
5:1 2.01841e-09:2 
#C 2.38874e-08 2
5:1 2.01841e-09:2 
#C 2.39874e-08 2
5:1 2.01841e-09:2 
#C 2.40581e-08 2
5:1 2.01841e-09:2 
#C 2.41581e-08 2
5:1 2.01841e-09:2 
#C 2.42288e-08 2
5:1 2.01841e-09:2 
#C 2.43288e-08 2
5:1 2.01841e-09:2 
#C 2.43995e-08 2
5:1 2.01841e-09:2 
#C 2.44995e-08 2
5:1 2.01841e-09:2 
#C 2.45702e-08 2
5:1 2.01841e-09:2 
#C 2.46702e-08 2
5:1 2.01841e-09:2 
#C 2.47409e-08 2
5:1 2.01841e-09:2 
#C 2.48409e-08 2
5:1 2.01841e-09:2 
#C 2.49116e-08 2
5:1 2.01841e-09:2 
#C 2.50116e-08 2
5:1 2.01841e-09:2 
#C 2.50823e-08 2
5:1 2.01841e-09:2 
#C 2.51823e-08 2
5:1 2.01841e-09:2 
#C 2.5253e-08 2
5:1 2.01841e-09:2 
#C 2.5353e-08 2
5:1 2.01841e-09:2 
#C 2.54238e-08 2
5:1 2.01841e-09:2 
#C 2.55238e-08 2
5:1 2.01841e-09:2 
#C 2.55945e-08 2
5:1 2.01841e-09:2 
#C 2.56945e-08 2
5:1 2.01841e-09:2 
#C 2.57652e-08 2
5:1 2.01841e-09:2 
#C 2.58652e-08 2
5:1 2.01841e-09:2 
#C 2.59359e-08 2
5:1 2.01841e-09:2 
#C 2.60359e-08 2
5:1 2.01841e-09:2 
#C 2.61066e-08 2
5:1 2.01841e-09:2 
#C 2.62066e-08 2
5:1 2.01841e-09:2 
#C 2.62773e-08 2
5:1 2.01841e-09:2 
#C 2.63773e-08 2
5:1 2.01841e-09:2 
#C 2.6448e-08 2
5:1 2.01841e-09:2 
#C 2.6548e-08 2
5:1 2.01841e-09:2 
#C 2.66187e-08 2
5:1 2.01841e-09:2 
#C 2.67187e-08 2
5:1 2.01841e-09:2 
#C 2.67894e-08 2
5:1 2.01841e-09:2 
#C 2.68894e-08 2
5:1 2.01841e-09:2 
#C 2.69602e-08 2
5:1 2.01841e-09:2 
#C 2.70602e-08 2
5:1 2.01841e-09:2 
#C 2.71309e-08 2
5:1 2.01841e-09:2 
#C 2.72309e-08 2
5:1 2.01841e-09:2 
#C 2.73016e-08 2
5:1 2.01841e-09:2 
#C 2.74016e-08 2
5:1 2.01841e-09:2 
#C 2.74723e-08 2
5:1 2.01841e-09:2 
#C 2.75723e-08 2
5:1 2.01841e-09:2 
#C 2.7643e-08 2
5:1 2.01841e-09:2 
#C 2.7743e-08 2
5:1 2.01841e-09:2 
#C 2.78137e-08 2
5:1 2.01841e-09:2 
#C 2.79137e-08 2
5:1 2.01841e-09:2 
#C 2.79844e-08 2
5:1 2.01841e-09:2 
#C 2.80844e-08 2
5:1 2.01841e-09:2 
#C 2.81551e-08 2
5:1 2.01841e-09:2 
#C 2.82551e-08 2
5:1 2.01841e-09:2 
#C 2.83258e-08 2
5:1 2.01841e-09:2 
#C 2.84258e-08 2
5:1 2.01841e-09:2 
#C 2.84966e-08 2
5:1 2.01841e-09:2 
#C 2.85966e-08 2
5:1 2.01841e-09:2 
#C 2.86673e-08 2
5:1 2.01841e-09:2 
#C 2.87673e-08 2
5:1 2.01841e-09:2 
#C 2.8838e-08 2
5:1 2.01841e-09:2 
#C 2.8938e-08 2
5:1 2.01841e-09:2 
#C 2.90087e-08 2
5:1 2.01841e-09:2 
#C 2.91087e-08 2
5:1 2.01841e-09:2 
#C 2.91794e-08 2
5:1 2.01841e-09:2 
#C 2.92794e-08 2
5:1 2.01841e-09:2 
#C 2.93501e-08 2
5:1 2.01841e-09:2 
#C 2.94501e-08 2
5:1 2.01841e-09:2 
#C 2.95208e-08 2
5:1 2.01841e-09:2 
#C 2.96208e-08 2
5:1 2.01841e-09:2 
#C 2.96915e-08 2
5:1 2.01841e-09:2 
#C 2.97915e-08 2
5:1 2.01841e-09:2 
#C 2.98622e-08 2
5:1 2.01841e-09:2 
#C 2.99622e-08 2
5:1 2.01841e-09:2 
#C 3.00329e-08 2
5:1 2.01841e-09:2 
#C 3.01329e-08 2
5:1 2.01841e-09:2 
#C 3.02037e-08 2
5:1 2.01841e-09:2 
#C 3.03037e-08 2
5:1 2.01841e-09:2 
#C 3.03744e-08 2
5:1 2.01841e-09:2 
#C 3.04744e-08 2
5:1 2.01841e-09:2 
#C 3.05451e-08 2
5:1 2.01841e-09:2 
#C 3.06451e-08 2
5:1 2.01841e-09:2 
#C 3.07158e-08 2
5:1 2.01841e-09:2 
#C 3.08158e-08 2
5:1 2.01841e-09:2 
#C 3.08865e-08 2
5:1 2.01841e-09:2 
#C 3.09865e-08 2
5:1 2.01841e-09:2 
#C 3.10572e-08 2
5:1 2.01841e-09:2 
#C 3.11572e-08 2
5:1 2.01841e-09:2 
#C 3.12279e-08 2
5:1 2.01841e-09:2 
#C 3.13279e-08 2
5:1 2.01841e-09:2 
#C 3.13986e-08 2
5:1 2.01841e-09:2 
#C 3.14986e-08 2
5:1 2.01841e-09:2 
#C 3.15693e-08 2
5:1 2.01841e-09:2 
#C 3.16693e-08 2
5:1 2.01841e-09:2 
#C 3.17401e-08 2
5:1 2.01841e-09:2 
#C 3.18401e-08 2
5:1 2.01841e-09:2 
#C 3.19108e-08 2
5:1 2.01841e-09:2 
#C 3.20108e-08 2
5:1 2.01841e-09:2 
#C 3.20815e-08 2
5:1 2.01841e-09:2 
#C 3.21815e-08 2
5:1 2.01841e-09:2 
#C 3.22522e-08 2
5:1 2.01841e-09:2 
#C 3.23522e-08 2
5:1 2.01841e-09:2 
#C 3.24229e-08 2
5:1 2.01841e-09:2 
#C 3.25229e-08 2
5:1 2.01841e-09:2 
#C 3.25936e-08 2
5:1 2.01841e-09:2 
#C 3.26936e-08 2
5:1 2.01841e-09:2 
#C 3.27643e-08 2
5:1 2.01841e-09:2 
#C 3.28643e-08 2
5:1 2.01841e-09:2 
#C 3.2935e-08 2
5:1 2.01841e-09:2 
#C 3.3035e-08 2
5:1 2.01841e-09:2 
#C 3.31057e-08 2
5:1 2.01841e-09:2 
#C 3.32057e-08 2
5:1 2.01841e-09:2 
#C 3.32765e-08 2
5:1 2.01841e-09:2 
#C 3.33765e-08 2
5:1 2.01841e-09:2 
#C 3.34472e-08 2
5:1 2.01841e-09:2 
#C 3.35472e-08 2
5:1 2.01841e-09:2 
#C 3.36179e-08 2
5:1 2.01841e-09:2 
#C 3.37179e-08 2
5:1 2.01841e-09:2 
#C 3.37886e-08 2
5:1 2.01841e-09:2 
#C 3.38886e-08 2
5:1 2.01841e-09:2 
#C 3.39593e-08 2
5:1 2.01841e-09:2 
#C 3.40593e-08 2
5:1 2.01841e-09:2 
#C 3.413e-08 2
5:1 2.01841e-09:2 
#C 3.423e-08 2
5:1 2.01841e-09:2 
#C 3.43007e-08 2
5:1 2.01841e-09:2 
#C 3.44007e-08 2
5:1 2.01841e-09:2 
#C 3.44714e-08 2
5:1 2.01841e-09:2 
#C 3.45714e-08 2
5:1 2.01841e-09:2 
#C 3.46421e-08 2
5:1 2.01841e-09:2 
#C 3.47421e-08 2
5:1 2.01841e-09:2 
#C 3.48128e-08 2
5:1 2.01841e-09:2 
#C 3.49128e-08 2
5:1 2.01841e-09:2 
#C 3.49836e-08 2
5:1 2.01841e-09:2 
#C 3.50836e-08 2
5:1 2.01841e-09:2 
#C 3.51543e-08 2
5:1 2.01841e-09:2 
#C 3.52543e-08 2
5:1 2.01841e-09:2 
#C 3.5325e-08 2
5:1 2.01841e-09:2 
#C 3.5425e-08 2
5:1 2.01841e-09:2 
#C 3.54957e-08 2
5:1 2.01841e-09:2 
#C 3.55957e-08 2
5:1 2.01841e-09:2 
#C 3.56664e-08 2
5:1 2.01841e-09:2 
#C 3.57664e-08 2
5:1 2.01841e-09:2 
#C 3.58371e-08 2
5:1 2.01841e-09:2 
#C 3.59371e-08 2
5:1 2.01841e-09:2 
#C 3.60078e-08 2
5:1 2.01841e-09:2 
#C 3.61078e-08 2
5:1 2.01841e-09:2 
#C 3.61785e-08 2
5:1 2.01841e-09:2 
#C 3.62785e-08 2
5:1 2.01841e-09:2 
#C 3.63492e-08 2
5:1 2.01841e-09:2 
#C 3.64492e-08 2
5:1 2.01841e-09:2 
#C 3.652e-08 2
5:1 2.01841e-09:2 
#C 3.662e-08 2
5:1 2.01841e-09:2 
#C 3.66907e-08 2
5:1 2.01841e-09:2 
#C 3.67907e-08 2
5:1 2.01841e-09:2 
#C 3.68614e-08 2
5:1 2.01841e-09:2 
#C 3.69614e-08 2
5:1 2.01841e-09:2 
#C 3.70321e-08 2
5:1 2.01841e-09:2 
#C 3.71321e-08 2
5:1 2.01841e-09:2 
#C 3.72028e-08 2
5:1 2.01841e-09:2 
#C 3.73028e-08 2
5:1 2.01841e-09:2 
#C 3.73735e-08 2
5:1 2.01841e-09:2 
#C 3.74735e-08 2
5:1 2.01841e-09:2 
#C 3.75442e-08 2
5:1 2.01841e-09:2 
#C 3.76442e-08 2
5:1 2.01841e-09:2 
#C 3.77149e-08 2
5:1 2.01841e-09:2 
#C 3.78149e-08 2
5:1 2.01841e-09:2 
#C 3.78856e-08 2
5:1 2.01841e-09:2 
#C 3.79856e-08 2
5:1 2.01841e-09:2 
#C 3.80563e-08 2
5:1 2.01841e-09:2 
#C 3.81563e-08 2
5:1 2.01841e-09:2 
#C 3.82271e-08 2
5:1 2.01841e-09:2 
#C 3.83271e-08 2
5:1 2.01841e-09:2 
#C 3.83978e-08 2
5:1 2.01841e-09:2 
#C 3.84978e-08 2
5:1 2.01841e-09:2 
#C 3.85685e-08 2
5:1 2.01841e-09:2 
#C 3.86685e-08 2
5:1 2.01841e-09:2 
#C 3.87392e-08 2
5:1 2.01841e-09:2 
#C 3.88392e-08 2
5:1 2.01841e-09:2 
#C 3.89099e-08 2
5:1 2.01841e-09:2 
#C 3.90099e-08 2
5:1 2.01841e-09:2 
#C 3.90806e-08 2
5:1 2.01841e-09:2 
#C 3.91806e-08 2
5:1 2.01841e-09:2 
#C 3.92513e-08 2
5:1 2.01841e-09:2 
#C 3.93513e-08 2
5:1 2.01841e-09:2 
#C 3.9422e-08 2
5:1 2.01841e-09:2 
#C 3.9522e-08 2
5:1 2.01841e-09:2 
#C 3.95927e-08 2
5:1 2.01841e-09:2 
#C 3.96927e-08 2
5:1 2.01841e-09:2 
#C 3.97635e-08 2
5:1 2.01841e-09:2 
#C 3.98635e-08 2
5:1 2.01841e-09:2 
#C 3.99342e-08 2
5:1 2.01841e-09:2 
#C 4.00342e-08 2
5:1 2.01841e-09:2 
#C 4.01049e-08 2
5:1 2.01841e-09:2 
#C 4.02049e-08 2
5:1 2.01841e-09:2 
#C 4.02756e-08 2
5:1 2.01841e-09:2 
#C 4.03756e-08 2
5:1 2.01841e-09:2 
#C 4.04463e-08 2
5:1 2.01841e-09:2 
#C 4.05463e-08 2
5:1 2.01841e-09:2 
#C 4.0617e-08 2
5:1 2.01841e-09:2 
#C 4.0717e-08 2
5:1 2.01841e-09:2 
#C 4.07877e-08 2
5:1 2.01841e-09:2 
#C 4.08877e-08 2
5:1 2.01841e-09:2 
#C 4.09584e-08 2
5:1 2.01841e-09:2 
#C 4.10584e-08 2
5:1 2.01841e-09:2 
#C 4.11291e-08 2
5:1 2.01841e-09:2 
#C 4.12291e-08 2
5:1 2.01841e-09:2 
#C 4.12999e-08 2
5:1 2.01841e-09:2 
#C 4.13999e-08 2
5:1 2.01841e-09:2 
#C 4.14706e-08 2
5:1 2.01841e-09:2 
#C 4.15706e-08 2
5:1 2.01841e-09:2 
#C 4.16413e-08 2
5:1 2.01841e-09:2 
#C 4.17413e-08 2
5:1 2.01841e-09:2 
#C 4.1812e-08 2
5:1 2.01841e-09:2 
#C 4.1912e-08 2
5:1 2.01841e-09:2 
#C 4.19827e-08 2
5:1 2.01841e-09:2 
#C 4.20827e-08 2
5:1 2.01841e-09:2 
#C 4.21534e-08 2
5:1 2.01841e-09:2 
#C 4.22534e-08 2
5:1 2.01841e-09:2 
#C 4.23241e-08 2
5:1 2.01841e-09:2 
#C 4.24241e-08 2
5:1 2.01841e-09:2 
#C 4.24948e-08 2
5:1 2.01841e-09:2 
#C 4.25948e-08 2
5:1 2.01841e-09:2 
#C 4.26655e-08 2
5:1 2.01841e-09:2 
#C 4.27655e-08 2
5:1 2.01841e-09:2 
#C 4.28362e-08 2
5:1 2.01841e-09:2 
#C 4.29362e-08 2
5:1 2.01841e-09:2 
#C 4.3007e-08 2
5:1 2.01841e-09:2 
#C 4.3107e-08 2
5:1 2.01841e-09:2 
#C 4.31777e-08 2
5:1 2.01841e-09:2 
#C 4.32777e-08 2
5:1 2.01841e-09:2 
#C 4.33484e-08 2
5:1 2.01841e-09:2 
#C 4.34484e-08 2
5:1 2.01841e-09:2 
#C 4.35191e-08 2
5:1 2.01841e-09:2 
#C 4.36191e-08 2
5:1 2.01841e-09:2 
#C 4.36898e-08 2
5:1 2.01841e-09:2 
#C 4.37898e-08 2
5:1 2.01841e-09:2 
#C 4.38605e-08 2
5:1 2.01841e-09:2 
#C 4.39605e-08 2
5:1 2.01841e-09:2 
#C 4.40312e-08 2
5:1 2.01841e-09:2 
#C 4.41312e-08 2
5:1 2.01841e-09:2 
#C 4.42019e-08 2
5:1 2.01841e-09:2 
#C 4.43019e-08 2
5:1 2.01841e-09:2 
#C 4.43726e-08 2
5:1 2.01841e-09:2 
#C 4.44726e-08 2
5:1 2.01841e-09:2 
#C 4.45434e-08 2
5:1 2.01841e-09:2 
#C 4.46434e-08 2
5:1 2.01841e-09:2 
#C 4.47141e-08 2
5:1 2.01841e-09:2 
#C 4.48141e-08 2
5:1 2.01841e-09:2 
#C 4.48848e-08 2
5:1 2.01841e-09:2 
#C 4.49848e-08 2
5:1 2.01841e-09:2 
#C 4.50555e-08 2
5:1 2.01841e-09:2 
#C 4.51555e-08 2
5:1 2.01841e-09:2 
#C 4.52262e-08 2
5:1 2.01841e-09:2 
#C 4.53262e-08 2
5:1 2.01841e-09:2 
#C 4.53969e-08 2
5:1 2.01841e-09:2 
#C 4.54969e-08 2
5:1 2.01841e-09:2 
#C 4.55676e-08 2
5:1 2.01841e-09:2 
#C 4.56676e-08 2
5:1 2.01841e-09:2 
#C 4.57383e-08 2
5:1 2.01841e-09:2 
#C 4.58383e-08 2
5:1 2.01841e-09:2 
#C 4.5909e-08 2
5:1 2.01841e-09:2 
#C 4.6009e-08 2
5:1 2.01841e-09:2 
#C 4.60798e-08 2
5:1 2.01841e-09:2 
#C 4.61798e-08 2
5:1 2.01841e-09:2 
#C 4.62505e-08 2
5:1 2.01841e-09:2 
#C 4.63505e-08 2
5:1 2.01841e-09:2 
#C 4.64212e-08 2
5:1 2.01841e-09:2 
#C 4.65212e-08 2
5:1 2.01841e-09:2 
#C 4.65919e-08 2
5:1 2.01841e-09:2 
#C 4.66919e-08 2
5:1 2.01841e-09:2 
#C 4.67626e-08 2
5:1 2.01841e-09:2 
#C 4.68626e-08 2
