#H
SOURCE='CAZM'
VERSION='5.0_work'
TITLE='exp2'
SUBTITLE='?'
TIME='11:37:18'
DATE='Wed Feb  3 1993'
TEMPERATURE='27'
ANALYSIS='Transient Analysis'
NODES='1'
SWEEPVAR='TIME'
SWEEPMODE='VAR_STEP'
XBEGIN='0'
XEND='1e-08'
FORMAT='0 VOLTS;EFLOAT:NODE;NODE'
#N
'v(out)' 
#U
'Volts' 
#C 0 1
0:1 
#C 5e-11 1
0.0385481:1 
#C 8.53553e-11 1
0.0850189:1 
#C 1.34533e-10 1
0.16063:1 
#C 1.69307e-10 1
0.213964:1 
#C 2.18485e-10 1
0.289179:1 
#C 2.53259e-10 1
0.342201:1 
#C 3.51615e-10 1
0.491444:1 
#C 4.21163e-10 1
0.59633:1 
#C 5.21163e-10 1
0.746212:1 
#C 5.91874e-10 1
0.851537:1 
#C 6.91874e-10 1
0.998812:1 
#C 7.62584e-10 1
1.10142:1 
#C 8.62584e-10 1
1.24438:1 
#C 9.33295e-10 1
1.34393:1 
#C 1.0333e-09 1
1.48258:1 
#C 1.10401e-09 1
1.57905:1 
#C 1.20401e-09 1
1.71269:1 
#C 1.27472e-09 1
1.80521:1 
#C 1.37472e-09 1
1.93328:1 
#C 1.44543e-09 1
2.02195:1 
#C 1.54543e-09 1
2.14469:1 
#C 1.61614e-09 1
2.22966:1 
#C 1.71614e-09 1
2.34684:1 
#C 1.78685e-09 1
2.42752:1 
#C 1.88685e-09 1
2.53858:1 
#C 1.95756e-09 1
2.61503:1 
#C 2.05756e-09 1
2.72027:1 
#C 2.12827e-09 1
2.7927:1 
#C 2.22827e-09 1
2.89241:1 
#C 2.29898e-09 1
2.96093:1 
#C 2.39898e-09 1
3.05479:1 
#C 2.46969e-09 1
3.11899:1 
#C 2.56969e-09 1
3.20679:1 
#C 2.6404e-09 1
3.26684:1 
#C 2.7404e-09 1
3.34897:1 
#C 2.81111e-09 1
3.40515:1 
#C 2.91111e-09 1
3.48198:1 
#C 2.98182e-09 1
3.53454:1 
#C 3.08182e-09 1
3.60641:1 
#C 3.15253e-09 1
3.65541:1 
#C 3.25253e-09 1
3.72206:1 
#C 3.32324e-09 1
3.76734:1 
#C 3.42324e-09 1
3.82886:1 
#C 3.49396e-09 1
3.87066:1 
#C 3.59396e-09 1
3.92745:1 
#C 3.66467e-09 1
3.96603:1 
#C 3.76467e-09 1
4.01845:1 
#C 3.83538e-09 1
4.05407:1 
#C 3.93538e-09 1
4.10245:1 
#C 4.00609e-09 1
4.13533:1 
#C 4.10609e-09 1
4.18:1 
#C 4.1768e-09 1
4.21034:1 
#C 4.2768e-09 1
4.25157:1 
#C 4.34751e-09 1
4.27959:1 
#C 4.44751e-09 1
4.31762:1 
#C 4.51822e-09 1
4.34333:1 
#C 4.61822e-09 1
4.37806:1 
#C 4.68893e-09 1
4.40152:1 
#C 4.78893e-09 1
4.43318:1 
#C 4.85964e-09 1
4.45455:1 
#C 4.95964e-09 1
4.4834:1 
#C 5.03035e-09 1
4.50289:1 
#C 5.13035e-09 1
4.52918:1 
#C 5.20106e-09 1
4.54694:1 
#C 5.30106e-09 1
4.5709:1 
#C 5.37177e-09 1
4.58708:1 
#C 5.47177e-09 1
4.60893:1 
#C 5.54248e-09 1
4.62367:1 
#C 5.64248e-09 1
4.64358:1 
#C 5.71319e-09 1
4.65702:1 
#C 5.81319e-09 1
4.67516:1 
#C 5.8839e-09 1
4.68741:1 
#C 5.9839e-09 1
4.70395:1 
#C 6.05462e-09 1
4.71511:1 
#C 6.15462e-09 1
4.73018:1 
#C 6.22533e-09 1
4.74036:1 
#C 6.32533e-09 1
4.75409:1 
#C 6.39604e-09 1
4.76337:1 
#C 6.49604e-09 1
4.77588:1 
#C 6.56675e-09 1
4.78434:1 
#C 6.66675e-09 1
4.79574:1 
#C 6.73746e-09 1
4.80345:1 
#C 6.83746e-09 1
4.81384:1 
#C 6.90817e-09 1
4.82086:1 
#C 7.00817e-09 1
4.83034:1 
#C 7.07888e-09 1
4.83674:1 
#C 7.17888e-09 1
4.84537:1 
#C 7.24959e-09 1
4.85121:1 
#C 7.34959e-09 1
4.85908:1 
#C 7.4203e-09 1
4.86439:1 
#C 7.5203e-09 1
4.87156:1 
#C 7.59101e-09 1
4.87641:1 
#C 7.69101e-09 1
4.88295:1 
#C 7.76172e-09 1
4.88736:1 
#C 7.86172e-09 1
4.89332:1 
#C 7.93243e-09 1
4.89734:1 
#C 8.03243e-09 1
4.90277:1 
#C 8.10314e-09 1
4.90644:1 
#C 8.20314e-09 1
4.91139:1 
#C 8.27385e-09 1
4.91473:1 
#C 8.37385e-09 1
4.91924:1 
#C 8.44456e-09 1
4.92229:1 
#C 8.54456e-09 1
4.9264:1 
#C 8.61528e-09 1
4.92917:1 
#C 8.71528e-09 1
4.93292:1 
#C 8.78599e-09 1
4.93545:1 
#C 8.88599e-09 1
4.93886:1 
#C 8.9567e-09 1
4.94117:1 
#C 9.0567e-09 1
4.94428:1 
#C 9.12741e-09 1
4.94638:1 
#C 9.22741e-09 1
4.94922:1 
#C 9.29812e-09 1
4.95113:1 
#C 9.39812e-09 1
4.95372:1 
#C 9.46883e-09 1
4.95546:1 
#C 9.56883e-09 1
4.95782:1 
#C 9.63954e-09 1
4.95941:1 
#C 9.73954e-09 1
4.96156:1 
#C 9.81025e-09 1
4.96301:1 
#C 9.91025e-09 1
4.96496:1 
#C 9.98096e-09 1
4.96629:1 
#C 9.99211e-09 1
4.96649:1 
#C 1e-08 1
4.96663:1 
#;
