#H
SOURCE='CAZM'
VERSION='5.0_work'
TITLE='texor'
SUBTITLE='?'
TIME='11:37:21'
DATE='Wed Feb  3 1993'
TEMPERATURE='27'
ANALYSIS='Transient Analysis'
NODES='5'
SWEEPVAR='TIME'
SWEEPMODE='VAR_STEP'
XBEGIN='0'
XEND='4e-07'
FORMAT='0 VOLTS;EFLOAT:NODE;NODE'
#N
'v(a)' 'v(b)' 'v(abar)' 'v(ex)' 'v(sex)' 
#U
'Volts' 'Volts' 'Volts' 'Volts' 'Volts' 
#C 0 5
0:1 0:2 4:3 0:4 0:5 
#C 5.85786e-10 5
0:1 0:2 4:3 0:4 0:5 
#C 1e-09 5
0:1 0:2 4:3 0:4 0:5 
#C 2.17157e-09 5
0:1 0:2 4:3 0:4 0:5 
#C 3e-09 5
0:1 0:2 4:3 0:4 0:5 
#C 5.34315e-09 5
0:1 0:2 4:3 0:4 0:5 
#C 7e-09 5
0:1 0:2 4:3 0:4 0:5 
#C 8.75736e-09 5
0:1 0:2 4:3 0:4 0:5 
#C 1e-08 5
0:1 0:2 4:3 0:4 0:5 
#C 1.05858e-08 5
2.34315:1 0:2 4.07019:3 0.0476756:4 0.0476756:5 
#C 1.1e-08 5
4:1 0:2 3.53569:3 0.187509:4 0.187509:5 
#C 1.14973e-08 5
4:1 0:2 2.44825:3 0.416612:4 0.416612:5 
#C 1.1849e-08 5
4:1 0:2 1.72775:3 0.604631:4 0.604631:5 
#C 1.27409e-08 5
4:1 0:2 0.514848:3 1.23635:4 1.23635:5 
#C 1.33716e-08 5
4:1 0:2 0.169145:3 1.71109:4 1.71109:5 
#C 1.449e-08 5
4:1 0:2 0.0223354:3 2.49201:4 2.49201:5 
#C 1.52808e-08 5
4:1 0:2 -0.00109302:3 2.91262:4 2.91262:5 
#C 1.68816e-08 5
4:1 0:2 0.00601595:3 3.48039:4 3.48039:5 
#C 1.80136e-08 5
4:1 0:2 0.00448603:3 3.70665:4 3.70665:5 
#C 1.91772e-08 5
4:1 0:2 0.00178781:3 3.8325:4 3.8325:5 
#C 2e-08 5
4:1 0:2 0.00102006:3 3.88891:4 3.88891:5 
#C 2.05858e-08 5
1.65685:1 2.34315:2 0.16838:3 3.87187:4 3.87187:5 
#C 2.1e-08 5
0:1 4:2 0.739759:3 3.60804:4 3.60804:5 
#C 2.1539e-08 5
0:1 4:2 1.5509:3 3.36905:4 3.36905:5 
#C 2.19201e-08 5
0:1 4:2 1.98213:3 3.36417:4 3.36417:5 
#C 2.2507e-08 5
0:1 4:2 2.46155:3 3.47556:4 3.47556:5 
#C 2.29221e-08 5
0:1 4:2 2.73415:3 3.55979:4 3.55979:5 
#C 2.40961e-08 5
0:1 4:2 3.32437:3 3.7676:4 3.7676:5 
#C 2.49262e-08 5
0:1 4:2 3.57639:3 3.85476:4 3.85476:5 
#C 2.72742e-08 5
0:1 4:2 3.90756:3 3.96438:4 3.96438:5 
#C 2.89344e-08 5
0:1 4:2 3.98558:3 3.99169:4 3.99169:5 
#C 2.95586e-08 5
0:1 4:2 3.98982:3 3.99392:4 3.99392:5 
#C 3e-08 5
0:1 4:2 3.99207:3 3.99513:4 3.99513:5 
#C 3.05858e-08 5
2.34315:1 4:2 4.06903:3 4.13178:4 4.13178:5 
#C 3.1e-08 5
4:1 4:2 3.49154:3 4.17852:4 4.17852:5 
#C 3.15214e-08 5
4:1 4:2 2.29717:3 4.13136:4 4.13136:5 
#C 3.189e-08 5
4:1 4:2 1.61363:3 4.05071:4 4.05071:5 
#C 3.26228e-08 5
4:1 4:2 0.878708:3 3.62745:4 3.62745:5 
#C 3.3141e-08 5
4:1 4:2 0.709157:3 3.13372:4 3.13372:5 
#C 3.39062e-08 5
4:1 4:2 0.669259:3 2.26701:4 2.26701:5 
#C 3.44473e-08 5
4:1 4:2 0.62649:3 1.71307:4 1.71307:5 
#C 3.56455e-08 5
4:1 4:2 0.448791:3 0.8605:4 0.8605:5 
#C 3.64928e-08 5
4:1 4:2 0.304382:3 0.525521:4 0.525521:5 
#C 3.80213e-08 5
4:1 4:2 0.122108:3 0.213329:4 0.213329:5 
#C 3.91021e-08 5
4:1 4:2 0.0605905:3 0.102644:4 0.102644:5 
#C 3.96281e-08 5
4:1 4:2 0.0456611:3 0.0753345:4 0.0753345:5 
#C 4e-08 5
4:1 4:2 0.0369809:3 0.0605964:4 0.0605964:5 
#C 4.05858e-08 5
1.65685:1 1.65685:2 -0.289276:3 -0.201786:4 -0.201786:5 
#C 4.1e-08 5
0:1 0:2 -0.301146:3 -0.370014:4 -0.370014:5 
#C 4.1803e-08 5
0:1 0:2 0.42915:3 -0.35223:4 -0.35223:5 
#C 4.23708e-08 5
0:1 0:2 0.928933:3 -0.307877:4 -0.307877:5 
#C 4.39768e-08 5
0:1 0:2 2.24061:3 -0.13492:4 -0.13492:5 
#C 4.51124e-08 5
0:1 0:2 2.92741:3 -0.0411221:4 -0.0411221:5 
#C 4.73138e-08 5
0:1 0:2 3.66535:3 0.0199439:4 0.0199439:5 
#C 4.88704e-08 5
0:1 0:2 3.88151:3 0.0142884:4 0.0142884:5 
#C 4.95321e-08 5
0:1 0:2 3.91514:3 0.00664203:4 0.00664203:5 
#C 5e-08 5
0:1 0:2 3.93325:3 0.00391008:4 0.00391008:5 
#C 5.05858e-08 5
2.34315:1 0:2 4.01455:3 0.0500436:4 0.0500436:5 
#C 5.1e-08 5
4:1 0:2 3.48248:3 0.190194:4 0.190194:5 
#C 5.14989e-08 5
4:1 0:2 2.39313:3 0.422948:4 0.422948:5 
#C 5.18518e-08 5
4:1 0:2 1.67563:3 0.615593:4 0.615593:5 
#C 5.27351e-08 5
4:1 0:2 0.496641:3 1.24992:4 1.24992:5 
#C 5.33598e-08 5
4:1 0:2 0.162528:3 1.72053:4 1.72053:5 
#C 5.44453e-08 5
4:1 0:2 0.0241093:3 2.4792:4 2.4792:5 
#C 5.52128e-08 5
4:1 0:2 0.000754476:3 2.89205:4 2.89205:5 
#C 5.68221e-08 5
4:1 0:2 0.00593737:3 3.47193:4 3.47193:5 
#C 5.796e-08 5
4:1 0:2 0.00427873:3 3.70268:4 3.70268:5 
#C 5.9155e-08 5
4:1 0:2 0.00175343:3 3.83293:4 3.83293:5 
#C 6e-08 5
4:1 0:2 0.00101215:3 3.8906:4 3.8906:5 
#C 6.05858e-08 5
1.65685:1 2.34315:2 0.168372:3 3.87313:4 3.87313:5 
#C 6.1e-08 5
0:1 4:2 0.739752:3 3.6091:4 3.6091:5 
#C 6.1539e-08 5
0:1 4:2 1.55092:3 3.36985:4 3.36985:5 
#C 6.19201e-08 5
0:1 4:2 1.98215:3 3.36484:4 3.36484:5 
#C 6.2507e-08 5
0:1 4:2 2.46156:3 3.47607:4 3.47607:5 
#C 6.29221e-08 5
0:1 4:2 2.73414:3 3.56021:4 3.56021:5 
#C 6.40961e-08 5
0:1 4:2 3.32436:3 3.76783:4 3.76783:5 
#C 6.49262e-08 5
0:1 4:2 3.57637:3 3.85491:4 3.85491:5 
#C 6.72741e-08 5
0:1 4:2 3.90755:3 3.96442:4 3.96442:5 
#C 6.89343e-08 5
0:1 4:2 3.98557:3 3.9917:4 3.9917:5 
#C 6.95586e-08 5
0:1 4:2 3.98982:3 3.99393:4 3.99393:5 
#C 7e-08 5
0:1 4:2 3.99207:3 3.99514:4 3.99514:5 
#C 7.05858e-08 5
2.34315:1 4:2 4.06902:3 4.13179:4 4.13179:5 
#C 7.1e-08 5
4:1 4:2 3.49154:3 4.17853:4 4.17853:5 
#C 7.15214e-08 5
4:1 4:2 2.29717:3 4.13136:4 4.13136:5 
#C 7.189e-08 5
4:1 4:2 1.61363:3 4.05072:4 4.05072:5 
#C 7.26228e-08 5
4:1 4:2 0.878708:3 3.62745:4 3.62745:5 
#C 7.3141e-08 5
4:1 4:2 0.709157:3 3.13373:4 3.13373:5 
#C 7.39062e-08 5
4:1 4:2 0.669259:3 2.26701:4 2.26701:5 
#C 7.44473e-08 5
4:1 4:2 0.626491:3 1.71307:4 1.71307:5 
#C 7.56455e-08 5
4:1 4:2 0.448791:3 0.860501:4 0.860501:5 
#C 7.64928e-08 5
4:1 4:2 0.304381:3 0.525521:4 0.525521:5 
#C 7.80213e-08 5
4:1 4:2 0.122108:3 0.213329:4 0.213329:5 
#C 7.91022e-08 5
4:1 4:2 0.0605903:3 0.102644:4 0.102644:5 
#C 7.96281e-08 5
4:1 4:2 0.0456611:3 0.0753345:4 0.0753345:5 
#C 8e-08 5
4:1 4:2 0.036981:3 0.0605965:4 0.0605965:5 
#C 8.05858e-08 5
1.65685:1 1.65685:2 -0.289276:3 -0.201786:4 -0.201786:5 
#C 8.1e-08 5
0:1 0:2 -0.301146:3 -0.370014:4 -0.370014:5 
#C 8.1803e-08 5
0:1 0:2 0.42915:3 -0.35223:4 -0.35223:5 
#C 8.23708e-08 5
0:1 0:2 0.928933:3 -0.307877:4 -0.307877:5 
#C 8.39768e-08 5
0:1 0:2 2.24061:3 -0.13492:4 -0.13492:5 
#C 8.51124e-08 5
0:1 0:2 2.92741:3 -0.041122:4 -0.041122:5 
#C 8.73138e-08 5
0:1 0:2 3.66535:3 0.0199439:4 0.0199439:5 
#C 8.88704e-08 5
0:1 0:2 3.88151:3 0.0142884:4 0.0142884:5 
#C 8.95321e-08 5
0:1 0:2 3.91514:3 0.00664203:4 0.00664203:5 
#C 9e-08 5
0:1 0:2 3.93325:3 0.00391008:4 0.00391008:5 
#C 9.05858e-08 5
2.34315:1 0:2 4.01455:3 0.0500436:4 0.0500436:5 
#C 9.1e-08 5
4:1 0:2 3.48248:3 0.190194:4 0.190194:5 
#C 9.14989e-08 5
4:1 0:2 2.39313:3 0.422948:4 0.422948:5 
#C 9.18518e-08 5
4:1 0:2 1.67563:3 0.615593:4 0.615593:5 
#C 9.27351e-08 5
4:1 0:2 0.496641:3 1.24992:4 1.24992:5 
#C 9.33598e-08 5
4:1 0:2 0.162528:3 1.72053:4 1.72053:5 
#C 9.44453e-08 5
4:1 0:2 0.0241093:3 2.4792:4 2.4792:5 
#C 9.52128e-08 5
4:1 0:2 0.000754476:3 2.89205:4 2.89205:5 
#C 9.68221e-08 5
4:1 0:2 0.00593737:3 3.47193:4 3.47193:5 
#C 9.796e-08 5
4:1 0:2 0.00427873:3 3.70268:4 3.70268:5 
#C 9.9155e-08 5
4:1 0:2 0.00175343:3 3.83293:4 3.83293:5 
#C 1e-07 5
4:1 0:2 0.00101215:3 3.8906:4 3.8906:5 
#C 1.00586e-07 5
1.65685:1 2.34315:2 0.168372:3 3.87313:4 3.87313:5 
#C 1.01e-07 5
0:1 4:2 0.739752:3 3.6091:4 3.6091:5 
#C 1.01539e-07 5
0:1 4:2 1.55092:3 3.36985:4 3.36985:5 
#C 1.0192e-07 5
0:1 4:2 1.98215:3 3.36484:4 3.36484:5 
#C 1.02507e-07 5
0:1 4:2 2.46156:3 3.47607:4 3.47607:5 
#C 1.02922e-07 5
0:1 4:2 2.73414:3 3.56021:4 3.56021:5 
#C 1.04096e-07 5
0:1 4:2 3.32436:3 3.76783:4 3.76783:5 
#C 1.04926e-07 5
0:1 4:2 3.57637:3 3.85491:4 3.85491:5 
#C 1.07274e-07 5
0:1 4:2 3.90755:3 3.96442:4 3.96442:5 
#C 1.08934e-07 5
0:1 4:2 3.98557:3 3.9917:4 3.9917:5 
#C 1.09559e-07 5
0:1 4:2 3.98982:3 3.99393:4 3.99393:5 
#C 1.1e-07 5
0:1 4:2 3.99207:3 3.99514:4 3.99514:5 
#C 1.10586e-07 5
2.34315:1 4:2 4.06902:3 4.13179:4 4.13179:5 
#C 1.11e-07 5
4:1 4:2 3.49154:3 4.17853:4 4.17853:5 
#C 1.11521e-07 5
4:1 4:2 2.29717:3 4.13136:4 4.13136:5 
#C 1.1189e-07 5
4:1 4:2 1.61363:3 4.05072:4 4.05072:5 
#C 1.12623e-07 5
4:1 4:2 0.878708:3 3.62745:4 3.62745:5 
#C 1.13141e-07 5
4:1 4:2 0.709157:3 3.13373:4 3.13373:5 
#C 1.13906e-07 5
4:1 4:2 0.669259:3 2.26701:4 2.26701:5 
#C 1.14447e-07 5
4:1 4:2 0.626491:3 1.71307:4 1.71307:5 
#C 1.15645e-07 5
4:1 4:2 0.448791:3 0.860501:4 0.860501:5 
#C 1.16493e-07 5
4:1 4:2 0.304381:3 0.525521:4 0.525521:5 
#C 1.18021e-07 5
4:1 4:2 0.122108:3 0.213329:4 0.213329:5 
#C 1.19102e-07 5
4:1 4:2 0.0605903:3 0.102644:4 0.102644:5 
#C 1.19628e-07 5
4:1 4:2 0.0456611:3 0.0753345:4 0.0753345:5 
#C 1.2e-07 5
4:1 4:2 0.036981:3 0.0605965:4 0.0605965:5 
#C 1.20586e-07 5
1.65685:1 1.65685:2 -0.289276:3 -0.201786:4 -0.201786:5 
#C 1.21e-07 5
0:1 0:2 -0.301146:3 -0.370014:4 -0.370014:5 
#C 1.21803e-07 5
0:1 0:2 0.42915:3 -0.35223:4 -0.35223:5 
#C 1.22371e-07 5
0:1 0:2 0.928933:3 -0.307877:4 -0.307877:5 
#C 1.23977e-07 5
0:1 0:2 2.24061:3 -0.13492:4 -0.13492:5 
#C 1.25112e-07 5
0:1 0:2 2.92741:3 -0.041122:4 -0.041122:5 
#C 1.27314e-07 5
0:1 0:2 3.66535:3 0.0199439:4 0.0199439:5 
#C 1.2887e-07 5
0:1 0:2 3.88151:3 0.0142884:4 0.0142884:5 
#C 1.29532e-07 5
0:1 0:2 3.91514:3 0.00664203:4 0.00664203:5 
#C 1.3e-07 5
0:1 0:2 3.93325:3 0.00391008:4 0.00391008:5 
#C 1.30586e-07 5
2.34315:1 0:2 4.01455:3 0.0500436:4 0.0500436:5 
#C 1.31e-07 5
4:1 0:2 3.48248:3 0.190194:4 0.190194:5 
#C 1.31499e-07 5
4:1 0:2 2.39313:3 0.422948:4 0.422948:5 
#C 1.31852e-07 5
4:1 0:2 1.67563:3 0.615593:4 0.615593:5 
#C 1.32735e-07 5
4:1 0:2 0.496641:3 1.24992:4 1.24992:5 
#C 1.3336e-07 5
4:1 0:2 0.162528:3 1.72053:4 1.72053:5 
#C 1.34445e-07 5
4:1 0:2 0.0241093:3 2.4792:4 2.4792:5 
#C 1.35213e-07 5
4:1 0:2 0.000754476:3 2.89205:4 2.89205:5 
#C 1.36822e-07 5
4:1 0:2 0.00593737:3 3.47193:4 3.47193:5 
#C 1.3796e-07 5
4:1 0:2 0.00427873:3 3.70268:4 3.70268:5 
#C 1.39155e-07 5
4:1 0:2 0.00175343:3 3.83293:4 3.83293:5 
#C 1.4e-07 5
4:1 0:2 0.00101215:3 3.8906:4 3.8906:5 
#C 1.40586e-07 5
1.65685:1 2.34315:2 0.168372:3 3.87313:4 3.87313:5 
#C 1.41e-07 5
0:1 4:2 0.739752:3 3.6091:4 3.6091:5 
#C 1.41539e-07 5
0:1 4:2 1.55092:3 3.36985:4 3.36985:5 
#C 1.4192e-07 5
0:1 4:2 1.98215:3 3.36484:4 3.36484:5 
#C 1.42507e-07 5
0:1 4:2 2.46156:3 3.47607:4 3.47607:5 
#C 1.42922e-07 5
0:1 4:2 2.73414:3 3.56021:4 3.56021:5 
#C 1.44096e-07 5
0:1 4:2 3.32436:3 3.76783:4 3.76783:5 
#C 1.44926e-07 5
0:1 4:2 3.57637:3 3.85491:4 3.85491:5 
#C 1.47274e-07 5
0:1 4:2 3.90755:3 3.96442:4 3.96442:5 
#C 1.48934e-07 5
0:1 4:2 3.98557:3 3.9917:4 3.9917:5 
#C 1.49559e-07 5
0:1 4:2 3.98982:3 3.99393:4 3.99393:5 
#C 1.5e-07 5
0:1 4:2 3.99207:3 3.99514:4 3.99514:5 
#C 1.50586e-07 5
2.34315:1 4:2 4.06902:3 4.13179:4 4.13179:5 
#C 1.51e-07 5
4:1 4:2 3.49154:3 4.17853:4 4.17853:5 
#C 1.51521e-07 5
4:1 4:2 2.29717:3 4.13136:4 4.13136:5 
#C 1.5189e-07 5
4:1 4:2 1.61363:3 4.05072:4 4.05072:5 
#C 1.52623e-07 5
4:1 4:2 0.878708:3 3.62745:4 3.62745:5 
#C 1.53141e-07 5
4:1 4:2 0.709157:3 3.13373:4 3.13373:5 
#C 1.53906e-07 5
4:1 4:2 0.669259:3 2.26701:4 2.26701:5 
#C 1.54447e-07 5
4:1 4:2 0.626491:3 1.71307:4 1.71307:5 
#C 1.55645e-07 5
4:1 4:2 0.448791:3 0.860501:4 0.860501:5 
#C 1.56493e-07 5
4:1 4:2 0.304381:3 0.525521:4 0.525521:5 
#C 1.58021e-07 5
4:1 4:2 0.122108:3 0.213329:4 0.213329:5 
#C 1.59102e-07 5
4:1 4:2 0.0605903:3 0.102644:4 0.102644:5 
#C 1.59628e-07 5
4:1 4:2 0.0456611:3 0.0753345:4 0.0753345:5 
#C 1.6e-07 5
4:1 4:2 0.036981:3 0.0605965:4 0.0605965:5 
#C 1.60586e-07 5
1.65685:1 1.65685:2 -0.289276:3 -0.201786:4 -0.201786:5 
#C 1.61e-07 5
0:1 0:2 -0.301146:3 -0.370014:4 -0.370014:5 
#C 1.61803e-07 5
0:1 0:2 0.42915:3 -0.35223:4 -0.35223:5 
#C 1.62371e-07 5
0:1 0:2 0.928933:3 -0.307877:4 -0.307877:5 
#C 1.63977e-07 5
0:1 0:2 2.24061:3 -0.13492:4 -0.13492:5 
#C 1.65112e-07 5
0:1 0:2 2.92741:3 -0.041122:4 -0.041122:5 
#C 1.67314e-07 5
0:1 0:2 3.66535:3 0.0199439:4 0.0199439:5 
#C 1.6887e-07 5
0:1 0:2 3.88151:3 0.0142884:4 0.0142884:5 
#C 1.69532e-07 5
0:1 0:2 3.91514:3 0.00664203:4 0.00664203:5 
#C 1.7e-07 5
0:1 0:2 3.93325:3 0.00391008:4 0.00391008:5 
#C 1.70586e-07 5
2.34315:1 0:2 4.01455:3 0.0500436:4 0.0500436:5 
#C 1.71e-07 5
4:1 0:2 3.48248:3 0.190194:4 0.190194:5 
#C 1.71499e-07 5
4:1 0:2 2.39313:3 0.422948:4 0.422948:5 
#C 1.71852e-07 5
4:1 0:2 1.67563:3 0.615593:4 0.615593:5 
#C 1.72735e-07 5
4:1 0:2 0.496641:3 1.24992:4 1.24992:5 
#C 1.7336e-07 5
4:1 0:2 0.162528:3 1.72053:4 1.72053:5 
#C 1.74445e-07 5
4:1 0:2 0.0241093:3 2.4792:4 2.4792:5 
#C 1.75213e-07 5
4:1 0:2 0.000754476:3 2.89205:4 2.89205:5 
#C 1.76822e-07 5
4:1 0:2 0.00593737:3 3.47193:4 3.47193:5 
#C 1.7796e-07 5
4:1 0:2 0.00427873:3 3.70268:4 3.70268:5 
#C 1.79155e-07 5
4:1 0:2 0.00175343:3 3.83293:4 3.83293:5 
#C 1.8e-07 5
4:1 0:2 0.00101215:3 3.8906:4 3.8906:5 
#C 1.80586e-07 5
1.65685:1 2.34315:2 0.168372:3 3.87313:4 3.87313:5 
#C 1.81e-07 5
0:1 4:2 0.739752:3 3.6091:4 3.6091:5 
#C 1.81539e-07 5
0:1 4:2 1.55092:3 3.36985:4 3.36985:5 
#C 1.8192e-07 5
0:1 4:2 1.98215:3 3.36484:4 3.36484:5 
#C 1.82507e-07 5
0:1 4:2 2.46156:3 3.47607:4 3.47607:5 
#C 1.82922e-07 5
0:1 4:2 2.73414:3 3.56021:4 3.56021:5 
#C 1.84096e-07 5
0:1 4:2 3.32436:3 3.76783:4 3.76783:5 
#C 1.84926e-07 5
0:1 4:2 3.57637:3 3.85491:4 3.85491:5 
#C 1.87274e-07 5
0:1 4:2 3.90755:3 3.96442:4 3.96442:5 
#C 1.88934e-07 5
0:1 4:2 3.98557:3 3.9917:4 3.9917:5 
#C 1.89559e-07 5
0:1 4:2 3.98982:3 3.99393:4 3.99393:5 
#C 1.9e-07 5
0:1 4:2 3.99207:3 3.99514:4 3.99514:5 
#C 1.90586e-07 5
2.34315:1 4:2 4.06902:3 4.13179:4 4.13179:5 
#C 1.91e-07 5
4:1 4:2 3.49154:3 4.17853:4 4.17853:5 
#C 1.91521e-07 5
4:1 4:2 2.29717:3 4.13136:4 4.13136:5 
#C 1.9189e-07 5
4:1 4:2 1.61363:3 4.05072:4 4.05072:5 
#C 1.92623e-07 5
4:1 4:2 0.878708:3 3.62745:4 3.62745:5 
#C 1.93141e-07 5
4:1 4:2 0.709157:3 3.13373:4 3.13373:5 
#C 1.93906e-07 5
4:1 4:2 0.669259:3 2.26701:4 2.26701:5 
#C 1.94447e-07 5
4:1 4:2 0.626491:3 1.71307:4 1.71307:5 
#C 1.95645e-07 5
4:1 4:2 0.448791:3 0.860501:4 0.860501:5 
#C 1.96493e-07 5
4:1 4:2 0.304381:3 0.525521:4 0.525521:5 
#C 1.98021e-07 5
4:1 4:2 0.122108:3 0.213329:4 0.213329:5 
#C 1.99102e-07 5
4:1 4:2 0.0605903:3 0.102644:4 0.102644:5 
#C 1.99628e-07 5
4:1 4:2 0.0456611:3 0.0753345:4 0.0753345:5 
#C 2e-07 5
4:1 4:2 0.036981:3 0.0605965:4 0.0605965:5 
#C 2.00586e-07 5
1.65685:1 1.65685:2 -0.289276:3 -0.201786:4 -0.201786:5 
#C 2.01e-07 5
0:1 0:2 -0.301146:3 -0.370014:4 -0.370014:5 
#C 2.01803e-07 5
0:1 0:2 0.42915:3 -0.35223:4 -0.35223:5 
#C 2.02371e-07 5
0:1 0:2 0.928933:3 -0.307877:4 -0.307877:5 
#C 2.03977e-07 5
0:1 0:2 2.24061:3 -0.13492:4 -0.13492:5 
#C 2.05112e-07 5
0:1 0:2 2.92741:3 -0.041122:4 -0.041122:5 
#C 2.07314e-07 5
0:1 0:2 3.66535:3 0.0199439:4 0.0199439:5 
#C 2.0887e-07 5
0:1 0:2 3.88151:3 0.0142884:4 0.0142884:5 
#C 2.09532e-07 5
0:1 0:2 3.91514:3 0.00664203:4 0.00664203:5 
#C 2.1e-07 5
0:1 0:2 3.93325:3 0.00391008:4 0.00391008:5 
#C 2.10586e-07 5
2.34315:1 0:2 4.01455:3 0.0500436:4 0.0500436:5 
#C 2.11e-07 5
4:1 0:2 3.48248:3 0.190194:4 0.190194:5 
#C 2.11499e-07 5
4:1 0:2 2.39313:3 0.422948:4 0.422948:5 
#C 2.11852e-07 5
4:1 0:2 1.67563:3 0.615593:4 0.615593:5 
#C 2.12735e-07 5
4:1 0:2 0.496641:3 1.24992:4 1.24992:5 
#C 2.1336e-07 5
4:1 0:2 0.162528:3 1.72053:4 1.72053:5 
#C 2.14445e-07 5
4:1 0:2 0.0241093:3 2.4792:4 2.4792:5 
#C 2.15213e-07 5
4:1 0:2 0.000754476:3 2.89205:4 2.89205:5 
#C 2.16822e-07 5
4:1 0:2 0.00593737:3 3.47193:4 3.47193:5 
#C 2.1796e-07 5
4:1 0:2 0.00427873:3 3.70268:4 3.70268:5 
#C 2.19155e-07 5
4:1 0:2 0.00175343:3 3.83293:4 3.83293:5 
#C 2.2e-07 5
4:1 0:2 0.00101215:3 3.8906:4 3.8906:5 
#C 2.20586e-07 5
1.65685:1 2.34315:2 0.168372:3 3.87313:4 3.87313:5 
#C 2.21e-07 5
2.64698e-14:1 4:2 0.739752:3 3.6091:4 3.6091:5 
#C 2.21539e-07 5
0:1 4:2 1.55092:3 3.36985:4 3.36985:5 
#C 2.2192e-07 5
0:1 4:2 1.98215:3 3.36484:4 3.36484:5 
#C 2.22507e-07 5
0:1 4:2 2.46156:3 3.47607:4 3.47607:5 
#C 2.22922e-07 5
0:1 4:2 2.73414:3 3.56021:4 3.56021:5 
#C 2.24096e-07 5
0:1 4:2 3.32436:3 3.76783:4 3.76783:5 
#C 2.24926e-07 5
0:1 4:2 3.57637:3 3.85491:4 3.85491:5 
#C 2.27274e-07 5
0:1 4:2 3.90755:3 3.96442:4 3.96442:5 
#C 2.28934e-07 5
0:1 4:2 3.98557:3 3.9917:4 3.9917:5 
#C 2.29559e-07 5
0:1 4:2 3.98982:3 3.99393:4 3.99393:5 
#C 2.3e-07 5
1.32349e-14:1 4:2 3.99207:3 3.99514:4 3.99514:5 
#C 2.30586e-07 5
2.34315:1 4:2 4.06902:3 4.13179:4 4.13179:5 
#C 2.31e-07 5
4:1 4:2 3.49154:3 4.17853:4 4.17853:5 
#C 2.31521e-07 5
4:1 4:2 2.29717:3 4.13136:4 4.13136:5 
#C 2.3189e-07 5
4:1 4:2 1.61363:3 4.05072:4 4.05072:5 
#C 2.32623e-07 5
4:1 4:2 0.878708:3 3.62745:4 3.62745:5 
#C 2.33141e-07 5
4:1 4:2 0.709157:3 3.13373:4 3.13373:5 
#C 2.33906e-07 5
4:1 4:2 0.669259:3 2.26701:4 2.26701:5 
#C 2.34447e-07 5
4:1 4:2 0.626491:3 1.71307:4 1.71307:5 
#C 2.35645e-07 5
4:1 4:2 0.448791:3 0.860501:4 0.860501:5 
#C 2.36493e-07 5
4:1 4:2 0.304381:3 0.525521:4 0.525521:5 
#C 2.38021e-07 5
4:1 4:2 0.122108:3 0.213329:4 0.213329:5 
#C 2.39102e-07 5
4:1 4:2 0.0605903:3 0.102644:4 0.102644:5 
#C 2.39628e-07 5
4:1 4:2 0.0456611:3 0.0753345:4 0.0753345:5 
#C 2.4e-07 5
4:1 4:2 0.036981:3 0.0605965:4 0.0605965:5 
#C 2.40586e-07 5
1.65685:1 1.65685:2 -0.289276:3 -0.201786:4 -0.201786:5 
#C 2.41e-07 5
0:1 0:2 -0.301146:3 -0.370014:4 -0.370014:5 
#C 2.41803e-07 5
0:1 0:2 0.42915:3 -0.35223:4 -0.35223:5 
#C 2.42371e-07 5
0:1 0:2 0.928933:3 -0.307877:4 -0.307877:5 
#C 2.43977e-07 5
0:1 0:2 2.24061:3 -0.13492:4 -0.13492:5 
#C 2.45112e-07 5
0:1 0:2 2.92741:3 -0.041122:4 -0.041122:5 
#C 2.47314e-07 5
0:1 0:2 3.66535:3 0.0199439:4 0.0199439:5 
#C 2.4887e-07 5
0:1 0:2 3.88151:3 0.0142884:4 0.0142884:5 
#C 2.49532e-07 5
0:1 0:2 3.91514:3 0.00664203:4 0.00664203:5 
#C 2.5e-07 5
0:1 0:2 3.93325:3 0.00391008:4 0.00391008:5 
#C 2.50586e-07 5
2.34315:1 0:2 4.01455:3 0.0500436:4 0.0500436:5 
#C 2.51e-07 5
4:1 0:2 3.48248:3 0.190194:4 0.190194:5 
#C 2.51499e-07 5
4:1 0:2 2.39313:3 0.422948:4 0.422948:5 
#C 2.51852e-07 5
4:1 0:2 1.67563:3 0.615593:4 0.615593:5 
#C 2.52735e-07 5
4:1 0:2 0.496641:3 1.24992:4 1.24992:5 
#C 2.5336e-07 5
4:1 0:2 0.162528:3 1.72053:4 1.72053:5 
#C 2.54445e-07 5
4:1 0:2 0.0241093:3 2.4792:4 2.4792:5 
#C 2.55213e-07 5
4:1 0:2 0.000754476:3 2.89205:4 2.89205:5 
#C 2.56822e-07 5
4:1 0:2 0.00593737:3 3.47193:4 3.47193:5 
#C 2.5796e-07 5
4:1 0:2 0.00427873:3 3.70268:4 3.70268:5 
#C 2.59155e-07 5
4:1 0:2 0.00175343:3 3.83293:4 3.83293:5 
#C 2.6e-07 5
4:1 2.64698e-14:2 0.00101215:3 3.8906:4 3.8906:5 
#C 2.60586e-07 5
1.65685:1 2.34315:2 0.168372:3 3.87313:4 3.87313:5 
#C 2.61e-07 5
1.05879e-13:1 4:2 0.739752:3 3.6091:4 3.6091:5 
#C 2.61539e-07 5
0:1 4:2 1.55092:3 3.36985:4 3.36985:5 
#C 2.6192e-07 5
0:1 4:2 1.98215:3 3.36484:4 3.36484:5 
#C 2.62507e-07 5
0:1 4:2 2.46156:3 3.47607:4 3.47607:5 
#C 2.62922e-07 5
0:1 4:2 2.73414:3 3.56021:4 3.56021:5 
#C 2.64096e-07 5
0:1 4:2 3.32436:3 3.76783:4 3.76783:5 
#C 2.64926e-07 5
0:1 4:2 3.57637:3 3.85491:4 3.85491:5 
#C 2.67274e-07 5
0:1 4:2 3.90755:3 3.96442:4 3.96442:5 
#C 2.68934e-07 5
0:1 4:2 3.98557:3 3.9917:4 3.9917:5 
#C 2.69559e-07 5
0:1 4:2 3.98982:3 3.99393:4 3.99393:5 
#C 2.7e-07 5
1.05879e-13:1 4:2 3.99207:3 3.99514:4 3.99514:5 
#C 2.70586e-07 5
2.34315:1 4:2 4.06902:3 4.13179:4 4.13179:5 
#C 2.71e-07 5
4:1 4:2 3.49154:3 4.17853:4 4.17853:5 
#C 2.71521e-07 5
4:1 4:2 2.29717:3 4.13136:4 4.13136:5 
#C 2.7189e-07 5
4:1 4:2 1.61363:3 4.05072:4 4.05072:5 
#C 2.72623e-07 5
4:1 4:2 0.878708:3 3.62745:4 3.62745:5 
#C 2.73141e-07 5
4:1 4:2 0.709157:3 3.13373:4 3.13373:5 
#C 2.73906e-07 5
4:1 4:2 0.669259:3 2.26701:4 2.26701:5 
#C 2.74447e-07 5
4:1 4:2 0.626491:3 1.71307:4 1.71307:5 
#C 2.75645e-07 5
4:1 4:2 0.448791:3 0.860501:4 0.860501:5 
#C 2.76493e-07 5
4:1 4:2 0.304381:3 0.525521:4 0.525521:5 
#C 2.78021e-07 5
4:1 4:2 0.122108:3 0.213329:4 0.213329:5 
#C 2.79102e-07 5
4:1 4:2 0.0605903:3 0.102644:4 0.102644:5 
#C 2.79628e-07 5
4:1 4:2 0.0456611:3 0.0753345:4 0.0753345:5 
#C 2.8e-07 5
4:1 4:2 0.036981:3 0.0605965:4 0.0605965:5 
#C 2.80586e-07 5
1.65685:1 1.65685:2 -0.289276:3 -0.201786:4 -0.201786:5 
#C 2.81e-07 5
0:1 0:2 -0.301146:3 -0.370014:4 -0.370014:5 
#C 2.81803e-07 5
0:1 0:2 0.42915:3 -0.35223:4 -0.35223:5 
#C 2.82371e-07 5
0:1 0:2 0.928933:3 -0.307877:4 -0.307877:5 
#C 2.83977e-07 5
0:1 0:2 2.24061:3 -0.13492:4 -0.13492:5 
#C 2.85112e-07 5
0:1 0:2 2.92741:3 -0.041122:4 -0.041122:5 
#C 2.87314e-07 5
0:1 0:2 3.66535:3 0.0199439:4 0.0199439:5 
